15:53:21.715 -> ENS160 example
15:53:22.715 -> ENS160...begin() - I2C init done
15:53:22.750 -> I2C write address: 0x52 - register: 0x10 -  value: 0xF0
15:53:22.784 -> reset() result: ok
15:53:22.819 -> I2C read address: 0x52 - register: 0x0
15:53:22.819 -> checkPartID() result: ok
15:53:22.853 -> I2C write address: 0x52 - register: 0x10 -  value: 0xB0
15:53:22.888 -> setMode() activate result: ok
15:53:22.922 -> I2C write address: 0x52 - register: 0x12 -  value: 0x0
15:53:22.922 -> I2C write address: 0x52 - register: 0x12 -  value: 0xCC
15:53:22.922 -> clearCommand() result: ok
15:53:22.957 -> I2C read address: 0x52 - register: 0x20
15:53:22.992 -> clearCommand() status: 0x43
15:53:23.027 -> I2C write address: 0x52 - register: 0x12 -  value: 0x0
15:53:23.027 -> I2C write address: 0x52 - register: 0x12 -  value: 0xCC
15:53:23.027 -> clearCommand() result: ok
15:53:23.097 -> I2C read address: 0x52 - register: 0x20
15:53:23.097 -> clearCommand() status: 0x41
15:53:23.167 -> I2C write address: 0x52 - register: 0x12 -  value: 0xE
15:53:23.201 -> I2C read address: 0x52 - register: 0x4C
15:53:23.201 -> 0
15:53:23.201 -> 0
15:53:23.201 -> 2
15:53:23.201 -> getFirmware() result: ok
15:53:23.236 -> ENS160 in bootloader mode
15:53:23.236 -> done.
15:53:23.236 -> Rev: 0.0.2
15:53:23.236 -> I2C write address: 0x52 - register: 0x10 -  value: 0xB0
15:53:23.305 -> I2C write address: 0x52 - register: 0x40 -  value: 0x53 0xCE 0x1A 0xBF
15:53:23.305 -> I2C write address: 0x52 - register: 0x12 -  value: 0x0
15:53:23.305 -> 1. Write 0x0 with result 0x0
15:53:23.305 -> I2C write address: 0x52 - register: 0x12 -  value: 0x2
15:53:23.305 -> 2. Write 0x2 with result 0x0
15:53:25.322 -> I2C read address: 0x52 - register: 0x20
15:53:25.322 -> 3. Read DATA_STATUS with 0x41	0x1
15:53:25.322 -> I2C read address: 0x52 - register: 0x4E
15:53:25.322 -> 4. Read GPR_READ_6 with 0x2	0x3
15:53:25.322 -> Write success ENS160_BL_CMD_START.I2C write address: 0x52 - register: 0x12 -  value: 0x0
15:53:25.322 -> 1. Write 0x0 with result 0x0
15:53:25.322 -> I2C write address: 0x52 - register: 0x12 -  value: 0x6
15:53:25.322 -> 2. Write 0x6 with result 0x0
15:53:27.334 -> I2C read address: 0x52 - register: 0x20
15:53:27.334 -> 3. Read DATA_STATUS with 0x41	0x1
15:53:27.334 -> I2C read address: 0x52 - register: 0x4E
15:53:27.334 -> 4. Read GPR_READ_6 with 0x2	0x7
15:53:27.334 -> Write success ENS160_BL_CMD_ERASE_BLINE.I2C write address: 0x52 - register: 0x12 -  value: 0x0
15:53:27.368 -> 1. Write 0x0 with result 0x0
15:53:27.368 -> I2C write address: 0x52 - register: 0x12 -  value: 0x4
15:53:27.368 -> 2. Write 0x4 with result 0x0
15:53:29.350 -> I2C read address: 0x52 - register: 0x20
15:53:29.350 -> 3. Read DATA_STATUS with 0x41	0x1
15:53:29.350 -> I2C read address: 0x52 - register: 0x4E
15:53:29.350 -> 4. Read GPR_READ_6 with 0x2	0x5
15:53:29.350 -> Write success ENS160_BL_CMD_ERASE_APP.12288
15:53:29.384 -> 8
15:53:29.384 -> 0
15:53:29.384 -> I2C write address: 0x52 - register: 0x40 -  value: 0x50 0x7 0x0 0x20 0x69 0x8 0x0 0x10
15:53:29.384 -> I2C write address: 0x52 - register: 0x12 -  value: 0x0
15:53:29.384 -> 1. Write 0x0 with result 0x0
15:53:29.384 -> I2C write address: 0x52 - register: 0x12 -  value: 0x8
15:53:29.384 -> 2. Write 0x8 with result 0x0
15:53:29.489 -> I2C read address: 0x52 - register: 0x20
15:53:29.489 -> 3. Read DATA_STATUS with 0x41	0x1
15:53:29.489 -> I2C read address: 0x52 - register: 0x4E
15:53:29.489 -> 4. Read GPR_READ_6 with 0x2	0x9
15:53:29.489 -> 12288
15:53:29.489 -> 8
15:53:29.489 -> 8
15:53:29.489 -> I2C write address: 0x52 - register: 0x40 -  value: 0x71 0x8 0x0 0x10 0x73 0x8 0x0 0x10
15:53:29.524 -> I2C write address: 0x52 - register: 0x12 -  value: 0x0
15:53:29.524 -> 1. Write 0x0 with result 0x0
15:53:29.524 -> I2C write address: 0x52 - register: 0x12 -  value: 0x8
15:53:29.524 -> 2. Write 0x8 with result 0x0
15:53:29.628 -> I2C read address: 0x52 - register: 0x20
15:53:29.628 -> 3. Read DATA_STATUS with 0x41	0x1
15:53:29.628 -> I2C read address: 0x52 - register: 0x4E
15:53:29.628 -> 4. Read GPR_READ_6 with 0x2	0x9
15:53:29.628 -> 12288
15:53:29.628 -> 8
15:53:29.628 -> 16
15:53:29.628 -> I2C write address: 0x52 - register: 0x40 -  value: 0x75 0x8 0x0 0x10 0x77 0x8 0x0 0x10
15:53:29.628 -> I2C write address: 0x52 - register: 0x12 -  value: 0x0
15:53:29.628 -> 1. Write 0x0 with result 0x0
15:53:29.663 -> I2C write address: 0x52 - register: 0x12 -  value: 0x8
15:53:29.663 -> 2. Write 0x8 with result 0x0
15:53:29.733 -> I2C read address: 0x52 - register: 0x20
15:53:29.768 -> 3. Read DATA_STATUS with 0x41	0x1
15:53:29.768 -> I2C read address: 0x52 - register: 0x4E
15:53:29.768 -> 4. Read GPR_READ_6 with 0x2	0x9
15:53:29.768 -> 12288
15:53:29.768 -> 8
15:53:29.768 -> 24
15:53:29.768 -> I2C write address: 0x52 - register: 0x40 -  value: 0x79 0x8 0x0 0x10 0x0 0x0 0x0 0x0
15:53:29.768 -> I2C write address: 0x52 - register: 0x12 -  value: 0x0
15:53:29.768 -> 1. Write 0x0 with result 0x0
15:53:29.768 -> I2C write address: 0x52 - register: 0x12 -  value: 0x8
15:53:29.768 -> 2. Write 0x8 with result 0x0
15:53:29.871 -> I2C read address: 0x52 - register: 0x20
15:53:29.871 -> 3. Read DATA_STATUS with 0x41	0x1
15:53:29.871 -> I2C read address: 0x52 - register: 0x4E
15:53:29.906 -> 4. Read GPR_READ_6 with 0x2	0x9
15:53:29.906 -> 12288
15:53:29.906 -> 8
15:53:29.906 -> 32
15:53:29.906 -> I2C write address: 0x52 - register: 0x40 -  value: 0x0 0x0 0x0 0x0 0x0 0x0 0x0 0x0
15:53:29.906 -> I2C write address: 0x52 - register: 0x12 -  value: 0x0
15:53:29.906 -> 1. Write 0x0 with result 0x0
15:53:29.906 -> I2C write address: 0x52 - register: 0x12 -  value: 0x8
15:53:29.906 -> 2. Write 0x8 with result 0x0
15:53:30.010 -> I2C read address: 0x52 - register: 0x20
15:53:30.010 -> 3. Read DATA_STATUS with 0x41	0x1
15:53:30.010 -> I2C read address: 0x52 - register: 0x4E
15:53:30.010 -> 4. Read GPR_READ_6 with 0x2	0x9
15:53:30.010 -> 12288
15:53:30.010 -> 8
15:53:30.010 -> 40
15:53:30.010 -> I2C write address: 0x52 - register: 0x40 -  value: 0x0 0x0 0x0 0x0 0x7B 0x8 0x0 0x10
15:53:30.045 -> I2C write address: 0x52 - register: 0x12 -  value: 0x0
15:53:30.045 -> 1. Write 0x0 with result 0x0
15:53:30.045 -> I2C write address: 0x52 - register: 0x12 -  value: 0x8
15:53:30.045 -> 2. Write 0x8 with result 0x0
15:53:30.150 -> I2C read address: 0x52 - register: 0x20
15:53:30.150 -> 3. Read DATA_STATUS with 0x41	0x1
15:53:30.150 -> I2C read address: 0x52 - register: 0x4E
15:53:30.150 -> 4. Read GPR_READ_6 with 0x2	0x9
15:53:30.150 -> 12288
15:53:30.150 -> 8
15:53:30.150 -> 48
15:53:30.150 -> I2C write address: 0x52 - register: 0x40 -  value: 0x7D 0x8 0x0 0x10 0x0 0x0 0x0 0x0
15:53:30.150 -> I2C write address: 0x52 - register: 0x12 -  value: 0x0
15:53:30.150 -> 1. Write 0x0 with result 0x0
15:53:30.185 -> I2C write address: 0x52 - register: 0x12 -  value: 0x8
15:53:30.185 -> 2. Write 0x8 with result 0x0
15:53:30.289 -> I2C read address: 0x52 - register: 0x20
15:53:30.289 -> 3. Read DATA_STATUS with 0x41	0x1
15:53:30.289 -> I2C read address: 0x52 - register: 0x4E
15:53:30.289 -> 4. Read GPR_READ_6 with 0x2	0x9
15:53:30.289 -> 12288
15:53:30.289 -> 8
15:53:30.289 -> 56
15:53:30.289 -> I2C write address: 0x52 - register: 0x40 -  value: 0x7F 0x8 0x0 0x10 0x65 0x17 0x0 0x10
15:53:30.289 -> I2C write address: 0x52 - register: 0x12 -  value: 0x0
15:53:30.289 -> 1. Write 0x0 with result 0x0
15:53:30.289 -> I2C write address: 0x52 - register: 0x12 -  value: 0x8
15:53:30.289 -> 2. Write 0x8 with result 0x0
15:53:30.392 -> I2C read address: 0x52 - register: 0x20
15:53:30.392 -> 3. Read DATA_STATUS with 0x41	0x1
15:53:30.392 -> I2C read address: 0x52 - register: 0x4E
15:53:30.427 -> 4. Read GPR_READ_6 with 0x2	0x9
15:53:30.427 -> 12288
15:53:30.427 -> 8
15:53:30.427 -> 64
15:53:30.427 -> I2C write address: 0x52 - register: 0x40 -  value: 0x85 0xB 0x0 0x10 0x6D 0xC 0x0 0x10
15:53:30.427 -> I2C write address: 0x52 - register: 0x12 -  value: 0x0
15:53:30.427 -> 1. Write 0x0 with result 0x0
15:53:30.427 -> I2C write address: 0x52 - register: 0x12 -  value: 0x8
15:53:30.427 -> 2. Write 0x8 with result 0x0
15:53:30.532 -> I2C read address: 0x52 - register: 0x20
15:53:30.532 -> 3. Read DATA_STATUS with 0x41	0x1
15:53:30.532 -> I2C read address: 0x52 - register: 0x4E
15:53:30.532 -> 4. Read GPR_READ_6 with 0x2	0x9
15:53:30.532 -> 12288
15:53:30.532 -> 8
15:53:30.532 -> 72
15:53:30.532 -> I2C write address: 0x52 - register: 0x40 -  value: 0x99 0xC 0x0 0x10 0xC9 0xC 0x0 0x10
15:53:30.567 -> I2C write address: 0x52 - register: 0x12 -  value: 0x0
15:53:30.567 -> 1. Write 0x0 with result 0x0
15:53:30.567 -> I2C write address: 0x52 - register: 0x12 -  value: 0x8
15:53:30.567 -> 2. Write 0x8 with result 0x0
15:53:30.672 -> I2C read address: 0x52 - register: 0x20
15:53:30.672 -> 3. Read DATA_STATUS with 0x41	0x1
15:53:30.672 -> I2C read address: 0x52 - register: 0x4E
15:53:30.672 -> 4. Read GPR_READ_6 with 0x2	0x9
15:53:30.672 -> 12288
15:53:30.672 -> 8
15:53:30.672 -> 80
15:53:30.672 -> I2C write address: 0x52 - register: 0x40 -  value: 0xFD 0xC 0x0 0x10 0x3 0x48 0x85 0x46
15:53:30.672 -> I2C write address: 0x52 - register: 0x12 -  value: 0x0
15:53:30.707 -> 1. Write 0x0 with result 0x0
15:53:30.707 -> I2C write address: 0x52 - register: 0x12 -  value: 0x8
15:53:30.707 -> 2. Write 0x8 with result 0x0
15:53:30.776 -> I2C read address: 0x52 - register: 0x20
15:53:30.810 -> 3. Read DATA_STATUS with 0x41	0x1
15:53:30.810 -> I2C read address: 0x52 - register: 0x4E
15:53:30.810 -> 4. Read GPR_READ_6 with 0x2	0x9
15:53:30.810 -> 12288
15:53:30.810 -> 8
15:53:30.810 -> 88
15:53:30.810 -> I2C write address: 0x52 - register: 0x40 -  value: 0x0 0xF0 0x40 0xF9 0x0 0x48 0x0 0x47
15:53:30.810 -> I2C write address: 0x52 - register: 0x12 -  value: 0x0
15:53:30.810 -> 1. Write 0x0 with result 0x0
15:53:30.810 -> I2C write address: 0x52 - register: 0x12 -  value: 0x8
15:53:30.810 -> 2. Write 0x8 with result 0x0
15:53:30.914 -> I2C read address: 0x52 - register: 0x20
15:53:30.914 -> 3. Read DATA_STATUS with 0x41	0x1
15:53:30.949 -> I2C read address: 0x52 - register: 0x4E
15:53:30.949 -> 4. Read GPR_READ_6 with 0x2	0x9
15:53:30.949 -> 12288
15:53:30.949 -> 8
15:53:30.949 -> 96
15:53:30.949 -> I2C write address: 0x52 - register: 0x40 -  value: 0x9 0x21 0x0 0x10 0x50 0x7 0x0 0x20
15:53:30.949 -> I2C write address: 0x52 - register: 0x12 -  value: 0x0
15:53:30.949 -> 1. Write 0x0 with result 0x0
15:53:30.949 -> I2C write address: 0x52 - register: 0x12 -  value: 0x8
15:53:30.949 -> 2. Write 0x8 with result 0x0
15:53:31.053 -> I2C read address: 0x52 - register: 0x20
15:53:31.053 -> 3. Read DATA_STATUS with 0x41	0x1
15:53:31.053 -> I2C read address: 0x52 - register: 0x4E
15:53:31.053 -> 4. Read GPR_READ_6 with 0x2	0x9
15:53:31.053 -> 12288
15:53:31.053 -> 8
15:53:31.053 -> 104
15:53:31.053 -> I2C write address: 0x52 - register: 0x40 -  value: 0x8 0x48 0x80 0x47 0x8 0x48 0x0 0x47
15:53:31.086 -> I2C write address: 0x52 - register: 0x12 -  value: 0x0
15:53:31.086 -> 1. Write 0x0 with result 0x0
15:53:31.086 -> I2C write address: 0x52 - register: 0x12 -  value: 0x8
15:53:31.086 -> 2. Write 0x8 with result 0x0
15:53:31.190 -> I2C read address: 0x52 - register: 0x20
15:53:31.190 -> 3. Read DATA_STATUS with 0x41	0x1
15:53:31.190 -> I2C read address: 0x52 - register: 0x4E
15:53:31.190 -> 4. Read GPR_READ_6 with 0x2	0x9
15:53:31.190 -> 12288
15:53:31.190 -> 8
15:53:31.190 -> 112
15:53:31.190 -> I2C write address: 0x52 - register: 0x40 -  value: 0xFE 0xE7 0xFE 0xE7 0xFE 0xE7 0xFE 0xE7
15:53:31.190 -> I2C write address: 0x52 - register: 0x12 -  value: 0x0
15:53:31.224 -> 1. Write 0x0 with result 0x0
15:53:31.224 -> I2C write address: 0x52 - register: 0x12 -  value: 0x8
15:53:31.224 -> 2. Write 0x8 with result 0x0
15:53:31.329 -> I2C read address: 0x52 - register: 0x20
15:53:31.329 -> 3. Read DATA_STATUS with 0x41	0x1
15:53:31.329 -> I2C read address: 0x52 - register: 0x4E
15:53:31.329 -> 4. Read GPR_READ_6 with 0x2	0x9
15:53:31.329 -> 12288
15:53:31.329 -> 8
15:53:31.329 -> 120
15:53:31.329 -> I2C write address: 0x52 - register: 0x40 -  value: 0xFE 0xE7 0xFE 0xE7 0xFE 0xE7 0xFE 0xE7
15:53:31.329 -> I2C write address: 0x52 - register: 0x12 -  value: 0x0
15:53:31.329 -> 1. Write 0x0 with result 0x0
15:53:31.329 -> I2C write address: 0x52 - register: 0x12 -  value: 0x8
15:53:31.364 -> 2. Write 0x8 with result 0x0
15:53:31.434 -> I2C read address: 0x52 - register: 0x20
15:53:31.469 -> 3. Read DATA_STATUS with 0x41	0x1
15:53:31.469 -> I2C read address: 0x52 - register: 0x4E
15:53:31.469 -> 4. Read GPR_READ_6 with 0x2	0x9
15:53:31.469 -> 12288
15:53:31.469 -> 8
15:53:31.469 -> 128
15:53:31.469 -> I2C write address: 0x52 - register: 0x40 -  value: 0xFE 0xE7 0xFE 0xE7 0xFE 0xE7 0xFE 0xE7
15:53:31.469 -> I2C write address: 0x52 - register: 0x12 -  value: 0x0
15:53:31.469 -> 1. Write 0x0 with result 0x0
15:53:31.469 -> I2C write address: 0x52 - register: 0x12 -  value: 0x8
15:53:31.469 -> 2. Write 0x8 with result 0x0
15:53:31.573 -> I2C read address: 0x52 - register: 0x20
15:53:31.573 -> 3. Read DATA_STATUS with 0x41	0x1
15:53:31.573 -> I2C read address: 0x52 - register: 0x4E
15:53:31.573 -> 4. Read GPR_READ_6 with 0x2	0x9
15:53:31.608 -> 12288
15:53:31.608 -> 8
15:53:31.608 -> 136
15:53:31.608 -> I2C write address: 0x52 - register: 0x40 -  value: 0xFE 0xE7 0xFE 0xE7 0x5 0x21 0x0 0x10
15:53:31.608 -> I2C write address: 0x52 - register: 0x12 -  value: 0x0
15:53:31.608 -> 1. Write 0x0 with result 0x0
15:53:31.608 -> I2C write address: 0x52 - register: 0x12 -  value: 0x8
15:53:31.608 -> 2. Write 0x8 with result 0x0
15:53:31.712 -> I2C read address: 0x52 - register: 0x20
15:53:31.712 -> 3. Read DATA_STATUS with 0x41	0x1
15:53:31.712 -> I2C read address: 0x52 - register: 0x4E
15:53:31.712 -> 4. Read GPR_READ_6 with 0x2	0x9
15:53:31.712 -> 12288
15:53:31.712 -> 8
15:53:31.712 -> 144
15:53:31.712 -> I2C write address: 0x52 - register: 0x40 -  value: 0x55 0x8 0x0 0x10 0xF8 0xB5 0x2 0x46
15:53:31.747 -> I2C write address: 0x52 - register: 0x12 -  value: 0x0
15:53:31.747 -> 1. Write 0x0 with result 0x0
15:53:31.747 -> I2C write address: 0x52 - register: 0x12 -  value: 0x8
15:53:31.747 -> 2. Write 0x8 with result 0x0
15:53:31.851 -> I2C read address: 0x52 - register: 0x20
15:53:31.851 -> 3. Read DATA_STATUS with 0x41	0x1
15:53:31.851 -> I2C read address: 0x52 - register: 0x4E
15:53:31.851 -> 4. Read GPR_READ_6 with 0x2	0x9
15:53:31.851 -> 12288
15:53:31.851 -> 8
15:53:31.851 -> 152
15:53:31.851 -> I2C write address: 0x52 - register: 0x40 -  value: 0x4A 0x40 0xD4 0xF 0x42 0x0 0x4B 0x0
15:53:31.851 -> I2C write address: 0x52 - register: 0x12 -  value: 0x0
15:53:31.851 -> 1. Write 0x0 with result 0x0
15:53:31.884 -> I2C write address: 0x52 - register: 0x12 -  value: 0x8
15:53:31.884 -> 2. Write 0x8 with result 0x0
15:53:31.989 -> I2C read address: 0x52 - register: 0x20
15:53:31.989 -> 3. Read DATA_STATUS with 0x41	0x1
15:53:31.989 -> I2C read address: 0x52 - register: 0x4E
15:53:31.989 -> 4. Read GPR_READ_6 with 0x2	0x9
15:53:31.989 -> 12288
15:53:31.989 -> 8
15:53:31.989 -> 160
15:53:31.989 -> I2C write address: 0x52 - register: 0x40 -  value: 0x52 0x8 0x5B 0x8 0x9A 0x42 0x2 0xD2
15:53:31.989 -> I2C write address: 0x52 - register: 0x12 -  value: 0x0
15:53:31.989 -> 1. Write 0x0 with result 0x0
15:53:31.989 -> I2C write address: 0x52 - register: 0x12 -  value: 0x8
15:53:31.989 -> 2. Write 0x8 with result 0x0
15:53:32.094 -> I2C read address: 0x52 - register: 0x20
15:53:32.094 -> 3. Read DATA_STATUS with 0x41	0x1
15:53:32.094 -> I2C read address: 0x52 - register: 0x4E
15:53:32.128 -> 4. Read GPR_READ_6 with 0x2	0x9
15:53:32.128 -> 12288
15:53:32.128 -> 8
15:53:32.128 -> 168
15:53:32.128 -> I2C write address: 0x52 - register: 0x40 -  value: 0x2 0x46 0x8 0x46 0x11 0x46 0x4A 0x0
15:53:32.128 -> I2C write address: 0x52 - register: 0x12 -  value: 0x0
15:53:32.128 -> 1. Write 0x0 with result 0x0
15:53:32.128 -> I2C write address: 0x52 - register: 0x12 -  value: 0x8
15:53:32.128 -> 2. Write 0x8 with result 0x0
15:53:32.231 -> I2C read address: 0x52 - register: 0x20
15:53:32.231 -> 3. Read DATA_STATUS with 0x41	0x1
15:53:32.231 -> I2C read address: 0x52 - register: 0x4E
15:53:32.231 -> 4. Read GPR_READ_6 with 0x2	0x9
15:53:32.231 -> 12288
15:53:32.231 -> 8
15:53:32.231 -> 176
15:53:32.231 -> I2C write address: 0x52 - register: 0x40 -  value: 0x23 0xD0 0xC3 0xD 0x4A 0x0 0xDD 0xB2
15:53:32.265 -> I2C write address: 0x52 - register: 0x12 -  value: 0x0
15:53:32.265 -> 1. Write 0x0 with result 0x0
15:53:32.265 -> I2C write address: 0x52 - register: 0x12 -  value: 0x8
15:53:32.265 -> 2. Write 0x8 with result 0x0
15:53:32.370 -> I2C read address: 0x52 - register: 0x20
15:53:32.370 -> 3. Read DATA_STATUS with 0x41	0x1
15:53:32.370 -> I2C read address: 0x52 - register: 0x4E
15:53:32.370 -> 4. Read GPR_READ_6 with 0x2	0x9
15:53:32.370 -> 12288
15:53:32.370 -> 8
15:53:32.370 -> 184
15:53:32.370 -> I2C write address: 0x52 - register: 0x40 -  value: 0x12 0xE 0xAD 0x1A 0x20 0x2D 0x35 0xDA
15:53:32.370 -> I2C write address: 0x52 - register: 0x12 -  value: 0x0
15:53:32.405 -> 1. Write 0x0 with result 0x0
15:53:32.405 -> I2C write address: 0x52 - register: 0x12 -  value: 0x8
15:53:32.405 -> 2. Write 0x8 with result 0x0
15:53:32.475 -> I2C read address: 0x52 - register: 0x20
15:53:32.510 -> 3. Read DATA_STATUS with 0x41	0x1
15:53:32.510 -> I2C read address: 0x52 - register: 0x4E
15:53:32.510 -> 4. Read GPR_READ_6 with 0x2	0x9
15:53:32.510 -> 12288
15:53:32.510 -> 8
15:53:32.510 -> 192
15:53:32.510 -> I2C write address: 0x52 - register: 0x40 -  value: 0x49 0x2 0x1 0x26 0x49 0xA 0xF6 0x5
15:53:32.510 -> I2C write address: 0x52 - register: 0x12 -  value: 0x0
15:53:32.510 -> 1. Write 0x0 with result 0x0
15:53:32.510 -> I2C write address: 0x52 - register: 0x12 -  value: 0x8
15:53:32.510 -> 2. Write 0x8 with result 0x0
15:53:32.614 -> I2C read address: 0x52 - register: 0x20
15:53:32.614 -> 3. Read DATA_STATUS with 0x41	0x1
15:53:32.614 -> I2C read address: 0x52 - register: 0x4E
15:53:32.649 -> 4. Read GPR_READ_6 with 0x2	0x9
15:53:32.649 -> 12288
15:53:32.649 -> 8
15:53:32.649 -> 200
15:53:32.649 -> I2C write address: 0x52 - register: 0x40 -  value: 0x8A 0x19 0x0 0x2C 0x0 0xD0 0x52 0x42
15:53:32.649 -> I2C write address: 0x52 - register: 0x12 -  value: 0x0
15:53:32.649 -> 1. Write 0x0 with result 0x0
15:53:32.649 -> I2C write address: 0x52 - register: 0x12 -  value: 0x8
15:53:32.649 -> 2. Write 0x8 with result 0x0
15:53:32.754 -> I2C read address: 0x52 - register: 0x20
15:53:32.754 -> 3. Read DATA_STATUS with 0x41	0x1
15:53:32.754 -> I2C read address: 0x52 - register: 0x4E
15:53:32.754 -> 4. Read GPR_READ_6 with 0x2	0x9
15:53:32.754 -> 12288
15:53:32.754 -> 8
15:53:32.754 -> 208
15:53:32.754 -> I2C write address: 0x52 - register: 0x40 -  value: 0x20 0x21 0x4F 0x1B 0x11 0x46 0xB9 0x40
15:53:32.788 -> I2C write address: 0x52 - register: 0x12 -  value: 0x0
15:53:32.788 -> 1. Write 0x0 with result 0x0
15:53:32.788 -> I2C write address: 0x52 - register: 0x12 -  value: 0x8
15:53:32.788 -> 2. Write 0x8 with result 0x0
15:53:32.892 -> I2C read address: 0x52 - register: 0x20
15:53:32.892 -> 3. Read DATA_STATUS with 0x41	0x1
15:53:32.892 -> I2C read address: 0x52 - register: 0x4E
15:53:32.892 -> 4. Read GPR_READ_6 with 0x2	0x9
15:53:32.892 -> 12288
15:53:32.892 -> 8
15:53:32.892 -> 216
15:53:32.892 -> I2C write address: 0x52 - register: 0x40 -  value: 0x2A 0x41 0x10 0x18 0xC2 0xD 0x9A 0x42
15:53:32.892 -> I2C write address: 0x52 - register: 0x12 -  value: 0x0
15:53:32.927 -> 1. Write 0x0 with result 0x0
15:53:32.927 -> I2C write address: 0x52 - register: 0x12 -  value: 0x8
15:53:32.927 -> 2. Write 0x8 with result 0x0
15:53:33.031 -> I2C read address: 0x52 - register: 0x20
15:53:33.031 -> 3. Read DATA_STATUS with 0x41	0x1
15:53:33.031 -> I2C read address: 0x52 - register: 0x4E
15:53:33.031 -> 4. Read GPR_READ_6 with 0x2	0x9
15:53:33.031 -> 12288
15:53:33.031 -> 8
15:53:33.031 -> 224
15:53:33.031 -> I2C write address: 0x52 - register: 0x40 -  value: 0x21 0xD0 0x0 0x2C 0x17 0xD0 0x1 0x2D
15:53:33.031 -> I2C write address: 0x52 - register: 0x12 -  value: 0x0
15:53:33.031 -> 1. Write 0x0 with result 0x0
15:53:33.031 -> I2C write address: 0x52 - register: 0x12 -  value: 0x8
15:53:33.066 -> 2. Write 0x8 with result 0x0
15:53:33.136 -> I2C read address: 0x52 - register: 0x20
15:53:33.136 -> 3. Read DATA_STATUS with 0x41	0x1
15:53:33.136 -> I2C read address: 0x52 - register: 0x4E
15:53:33.171 -> 4. Read GPR_READ_6 with 0x2	0x9
15:53:33.171 -> 12288
15:53:33.171 -> 8
15:53:33.171 -> 232
15:53:33.171 -> I2C write address: 0x52 - register: 0x40 -  value: 0x8 0xDC 0xDA 0x5 0x80 0x1A 0xD2 0xF
15:53:33.171 -> I2C write address: 0x52 - register: 0x12 -  value: 0x0
15:53:33.171 -> 1. Write 0x0 with result 0x0
15:53:33.171 -> I2C write address: 0x52 - register: 0x12 -  value: 0x8
15:53:33.171 -> 2. Write 0x8 with result 0x0
15:53:33.276 -> I2C read address: 0x52 - register: 0x20
15:53:33.276 -> 3. Read DATA_STATUS with 0x41	0x1
15:53:33.276 -> I2C read address: 0x52 - register: 0x4E
15:53:33.276 -> 4. Read GPR_READ_6 with 0x2	0x9
15:53:33.276 -> 12288
15:53:33.276 -> 8
15:53:33.276 -> 240
15:53:33.276 -> I2C write address: 0x52 - register: 0x40 -  value: 0x80 0x19 0xD2 0x7 0xDB 0xB2 0x0 0xF0
15:53:33.311 -> I2C write address: 0x52 - register: 0x12 -  value: 0x0
15:53:33.311 -> 1. Write 0x0 with result 0x0
15:53:33.311 -> I2C write address: 0x52 - register: 0x12 -  value: 0x8
15:53:33.311 -> 2. Write 0x8 with result 0x0
15:53:33.414 -> I2C read address: 0x52 - register: 0x20
15:53:33.414 -> 3. Read DATA_STATUS with 0x41	0x1
15:53:33.414 -> I2C read address: 0x52 - register: 0x4E
15:53:33.414 -> 4. Read GPR_READ_6 with 0x2	0x9
15:53:33.414 -> 12288
15:53:33.414 -> 8
15:53:33.414 -> 248
15:53:33.414 -> I2C write address: 0x52 - register: 0x40 -  value: 0xB 0xF9 0xF8 0xBD 0xDA 0x5 0x80 0x1A
15:53:33.414 -> I2C write address: 0x52 - register: 0x12 -  value: 0x0
15:53:33.449 -> 1. Write 0x0 with result 0x0
15:53:33.449 -> I2C write address: 0x52 - register: 0x12 -  value: 0x8
15:53:33.449 -> 2. Write 0x8 with result 0x0
15:53:33.554 -> I2C read address: 0x52 - register: 0x20
15:53:33.554 -> 3. Read DATA_STATUS with 0x41	0x1
15:53:33.554 -> I2C read address: 0x52 - register: 0x4E
15:53:33.554 -> 4. Read GPR_READ_6 with 0x2	0x9
15:53:33.554 -> 12288
15:53:33.554 -> 8
15:53:33.554 -> 256
15:53:33.554 -> I2C write address: 0x52 - register: 0x40 -  value: 0x1 0x23 0x40 0x0 0x1B 0x6 0xC0 0x18
15:53:33.554 -> I2C write address: 0x52 - register: 0x12 -  value: 0x0
15:53:33.554 -> 1. Write 0x0 with result 0x0
15:53:33.554 -> I2C write address: 0x52 - register: 0x12 -  value: 0x8
15:53:33.589 -> 2. Write 0x8 with result 0x0
15:53:33.659 -> I2C read address: 0x52 - register: 0x20
15:53:33.659 -> 3. Read DATA_STATUS with 0x41	0x1
15:53:33.659 -> I2C read address: 0x52 - register: 0x4E
15:53:33.694 -> 4. Read GPR_READ_6 with 0x2	0x9
15:53:33.694 -> 12288
15:53:33.694 -> 8
15:53:33.694 -> 264
15:53:33.694 -> I2C write address: 0x52 - register: 0x40 -  value: 0x80 0x18 0x5A 0x42 0x80 0x18 0xCA 0xF
15:53:33.694 -> I2C write address: 0x52 - register: 0x12 -  value: 0x0
15:53:33.694 -> 1. Write 0x0 with result 0x0
15:53:33.694 -> I2C write address: 0x52 - register: 0x12 -  value: 0x8
15:53:33.694 -> 2. Write 0x8 with result 0x0
15:53:33.796 -> I2C read address: 0x52 - register: 0x20
15:53:33.796 -> 3. Read DATA_STATUS with 0x41	0x1
15:53:33.796 -> I2C read address: 0x52 - register: 0x4E
15:53:33.796 -> 4. Read GPR_READ_6 with 0x2	0x9
15:53:33.831 -> 12288
15:53:33.831 -> 8
15:53:33.831 -> 272
15:53:33.831 -> I2C write address: 0x52 - register: 0x40 -  value: 0x10 0x43 0x49 0x0 0x7 0xE0 0x49 0x8
15:53:33.831 -> I2C write address: 0x52 - register: 0x12 -  value: 0x0
15:53:33.831 -> 1. Write 0x0 with result 0x0
15:53:33.831 -> I2C write address: 0x52 - register: 0x12 -  value: 0x8
15:53:33.831 -> 2. Write 0x8 with result 0x0
15:53:33.935 -> I2C read address: 0x52 - register: 0x20
15:53:33.935 -> 3. Read DATA_STATUS with 0x41	0x1
15:53:33.935 -> I2C read address: 0x52 - register: 0x4E
15:53:33.935 -> 4. Read GPR_READ_6 with 0x2	0x9
15:53:33.935 -> 12288
15:53:33.935 -> 8
15:53:33.935 -> 280
15:53:33.935 -> I2C write address: 0x52 - register: 0x40 -  value: 0xC2 0x7 0x11 0x43 0xDA 0x5 0x80 0x1A
15:53:33.970 -> I2C write address: 0x52 - register: 0x12 -  value: 0x0
15:53:33.970 -> 1. Write 0x0 with result 0x0
15:53:33.970 -> I2C write address: 0x52 - register: 0x12 -  value: 0x8
15:53:33.970 -> 2. Write 0x8 with result 0x0
15:53:34.075 -> I2C read address: 0x52 - register: 0x20
15:53:34.075 -> 3. Read DATA_STATUS with 0x41	0x1
15:53:34.075 -> I2C read address: 0x52 - register: 0x4E
15:53:34.075 -> 4. Read GPR_READ_6 with 0x2	0x9
15:53:34.075 -> 12288
15:53:34.075 -> 8
15:53:34.075 -> 288
15:53:34.075 -> I2C write address: 0x52 - register: 0x40 -  value: 0x80 0x19 0x40 0x8 0x80 0x18 0x0 0xF0
15:53:34.075 -> I2C write address: 0x52 - register: 0x12 -  value: 0x0
15:53:34.075 -> 1. Write 0x0 with result 0x0
15:53:34.075 -> I2C write address: 0x52 - register: 0x12 -  value: 0x8
15:53:34.109 -> 2. Write 0x8 with result 0x0
15:53:34.179 -> I2C read address: 0x52 - register: 0x20
15:53:34.179 -> 3. Read DATA_STATUS with 0x41	0x1
15:53:34.213 -> I2C read address: 0x52 - register: 0x4E
15:53:34.213 -> 4. Read GPR_READ_6 with 0x2	0x9
15:53:34.213 -> 12288
15:53:34.213 -> 8
15:53:34.213 -> 296
15:53:34.213 -> I2C write address: 0x52 - register: 0x40 -  value: 0xEB 0xF8 0xF8 0xBD 0x61 0x0 0x1 0x22
15:53:34.213 -> I2C write address: 0x52 - register: 0x12 -  value: 0x0
15:53:34.213 -> 1. Write 0x0 with result 0x0
15:53:34.213 -> I2C write address: 0x52 - register: 0x12 -  value: 0x8
15:53:34.213 -> 2. Write 0x8 with result 0x0
15:53:34.318 -> I2C read address: 0x52 - register: 0x20
15:53:34.318 -> 3. Read DATA_STATUS with 0x41	0x1
15:53:34.318 -> I2C read address: 0x52 - register: 0x4E
15:53:34.353 -> 4. Read GPR_READ_6 with 0x2	0x9
15:53:34.353 -> 12288
15:53:34.353 -> 8
15:53:34.353 -> 304
15:53:34.353 -> I2C write address: 0x52 - register: 0x40 -  value: 0x51 0x1A 0x0 0x1B 0xF7 0xE7 0x1 0x22
15:53:34.353 -> I2C write address: 0x52 - register: 0x12 -  value: 0x0
15:53:34.353 -> 1. Write 0x0 with result 0x0
15:53:34.353 -> I2C write address: 0x52 - register: 0x12 -  value: 0x8
15:53:34.353 -> 2. Write 0x8 with result 0x0
15:53:34.457 -> I2C read address: 0x52 - register: 0x20
15:53:34.457 -> 3. Read DATA_STATUS with 0x41	0x1
15:53:34.457 -> I2C read address: 0x52 - register: 0x4E
15:53:34.457 -> 4. Read GPR_READ_6 with 0x2	0x9
15:53:34.457 -> 12288
15:53:34.457 -> 8
15:53:34.457 -> 312
15:53:34.457 -> I2C write address: 0x52 - register: 0x40 -  value: 0xD2 0x7 0x51 0x40 0xAA 0xE7 0x1 0x22
15:53:34.489 -> I2C write address: 0x52 - register: 0x12 -  value: 0x0
15:53:34.489 -> 1. Write 0x0 with result 0x0
15:53:34.489 -> I2C write address: 0x52 - register: 0x12 -  value: 0x8
15:53:34.489 -> 2. Write 0x8 with result 0x0
15:53:34.594 -> I2C read address: 0x52 - register: 0x20
15:53:34.594 -> 3. Read DATA_STATUS with 0x41	0x1
15:53:34.594 -> I2C read address: 0x52 - register: 0x4E
15:53:34.594 -> 4. Read GPR_READ_6 with 0x2	0x9
15:53:34.594 -> 12288
15:53:34.594 -> 8
15:53:34.594 -> 320
15:53:34.594 -> I2C write address: 0x52 - register: 0x40 -  value: 0xD2 0x7 0x50 0x40 0xA6 0xE7 0x2 0x46
15:53:34.594 -> I2C write address: 0x52 - register: 0x12 -  value: 0x0
15:53:34.628 -> 1. Write 0x0 with result 0x0
15:53:34.628 -> I2C write address: 0x52 - register: 0x12 -  value: 0x8
15:53:34.628 -> 2. Write 0x8 with result 0x0
15:53:34.732 -> I2C read address: 0x52 - register: 0x20
15:53:34.732 -> 3. Read DATA_STATUS with 0x41	0x1
15:53:34.732 -> I2C read address: 0x52 - register: 0x4E
15:53:34.732 -> 4. Read GPR_READ_6 with 0x2	0x9
15:53:34.732 -> 12288
15:53:34.732 -> 8
15:53:34.732 -> 328
15:53:34.732 -> I2C write address: 0x52 - register: 0x40 -  value: 0x70 0xB5 0x4A 0x40 0xD3 0xF 0xDB 0x7
15:53:34.732 -> I2C write address: 0x52 - register: 0x12 -  value: 0x0
15:53:34.732 -> 1. Write 0x0 with result 0x0
15:53:34.732 -> I2C write address: 0x52 - register: 0x12 -  value: 0x8
15:53:34.732 -> 2. Write 0x8 with result 0x0
15:53:34.837 -> I2C read address: 0x52 - register: 0x20
15:53:34.837 -> 3. Read DATA_STATUS with 0x41	0x1
15:53:34.871 -> I2C read address: 0x52 - register: 0x4E
15:53:34.871 -> 4. Read GPR_READ_6 with 0x2	0x9
15:53:34.871 -> 12288
15:53:34.871 -> 8
15:53:34.871 -> 336
15:53:34.871 -> I2C write address: 0x52 - register: 0x40 -  value: 0x40 0x0 0x2D 0xD0 0x4A 0x0 0x2A 0xD0
15:53:34.871 -> I2C write address: 0x52 - register: 0x12 -  value: 0x0
15:53:34.871 -> 1. Write 0x0 with result 0x0
15:53:34.871 -> I2C write address: 0x52 - register: 0x12 -  value: 0x8
15:53:34.871 -> 2. Write 0x8 with result 0x0
15:53:34.976 -> I2C read address: 0x52 - register: 0x20
15:53:34.976 -> 3. Read DATA_STATUS with 0x41	0x1
15:53:34.976 -> I2C read address: 0x52 - register: 0x4E
15:53:34.976 -> 4. Read GPR_READ_6 with 0x2	0x9
15:53:34.976 -> 12288
15:53:34.976 -> 8
15:53:34.976 -> 344
15:53:34.976 -> I2C write address: 0x52 - register: 0x40 -  value: 0x1 0xE 0x14 0xE 0x0 0x2 0x12 0x2
15:53:35.011 -> I2C write address: 0x52 - register: 0x12 -  value: 0x0
15:53:35.011 -> 1. Write 0x0 with result 0x0
15:53:35.011 -> I2C write address: 0x52 - register: 0x12 -  value: 0x8
15:53:35.011 -> 2. Write 0x8 with result 0x0
15:53:35.115 -> I2C read address: 0x52 - register: 0x20
15:53:35.115 -> 3. Read DATA_STATUS with 0x41	0x1
15:53:35.115 -> I2C read address: 0x52 - register: 0x4E
15:53:35.115 -> 4. Read GPR_READ_6 with 0x2	0x9
15:53:35.115 -> 12288
15:53:35.115 -> 8
15:53:35.115 -> 352
15:53:35.115 -> I2C write address: 0x52 - register: 0x40 -  value: 0x9 0x19 0x40 0xA 0x52 0xA 0x84 0x18
15:53:35.115 -> I2C write address: 0x52 - register: 0x12 -  value: 0x0
15:53:35.150 -> 1. Write 0x0 with result 0x0
15:53:35.150 -> I2C write address: 0x52 - register: 0x12 -  value: 0x8
15:53:35.150 -> 2. Write 0x8 with result 0x0
15:53:35.253 -> I2C read address: 0x52 - register: 0x20
15:53:35.253 -> 3. Read DATA_STATUS with 0x41	0x1
15:53:35.253 -> I2C read address: 0x52 - register: 0x4E
15:53:35.253 -> 4. Read GPR_READ_6 with 0x2	0x9
15:53:35.253 -> 12288
15:53:35.253 -> 8
15:53:35.253 -> 360
15:53:35.253 -> I2C write address: 0x52 - register: 0x40 -  value: 0xE5 0x1 0x4 0x46 0x54 0x43 0x0 0xA
15:53:35.253 -> I2C write address: 0x52 - register: 0x12 -  value: 0x0
15:53:35.253 -> 1. Write 0x0 with result 0x0
15:53:35.253 -> I2C write address: 0x52 - register: 0x12 -  value: 0x8
15:53:35.288 -> 2. Write 0x8 with result 0x0
15:53:35.358 -> I2C read address: 0x52 - register: 0x20
15:53:35.358 -> 3. Read DATA_STATUS with 0x41	0x1
15:53:35.392 -> I2C read address: 0x52 - register: 0x4E
15:53:35.392 -> 4. Read GPR_READ_6 with 0x2	0x9
15:53:35.392 -> 12288
15:53:35.392 -> 8
15:53:35.392 -> 368
15:53:35.392 -> I2C write address: 0x52 - register: 0x40 -  value: 0x12 0xA 0x2E 0x4 0x50 0x43 0xA4 0x19
15:53:35.392 -> I2C write address: 0x52 - register: 0x12 -  value: 0x0
15:53:35.392 -> 1. Write 0x0 with result 0x0
15:53:35.392 -> I2C write address: 0x52 - register: 0x12 -  value: 0x8
15:53:35.392 -> 2. Write 0x8 with result 0x0
15:53:35.497 -> I2C read address: 0x52 - register: 0x20
15:53:35.497 -> 3. Read DATA_STATUS with 0x41	0x1
15:53:35.497 -> I2C read address: 0x52 - register: 0x4E
15:53:35.497 -> 4. Read GPR_READ_6 with 0x2	0x9
15:53:35.532 -> 12288
15:53:35.532 -> 8
15:53:35.532 -> 376
15:53:35.532 -> I2C write address: 0x52 - register: 0x40 -  value: 0x42 0x19 0x20 0xC 0xC5 0x43 0xAA 0x18
15:53:35.532 -> I2C write address: 0x52 - register: 0x12 -  value: 0x0
15:53:35.532 -> 1. Write 0x0 with result 0x0
15:53:35.532 -> I2C write address: 0x52 - register: 0x12 -  value: 0x8
15:53:35.532 -> 2. Write 0x8 with result 0x0
15:53:35.636 -> I2C read address: 0x52 - register: 0x20
15:53:35.636 -> 3. Read DATA_STATUS with 0x41	0x1
15:53:35.636 -> I2C read address: 0x52 - register: 0x4E
15:53:35.636 -> 4. Read GPR_READ_6 with 0x2	0x9
15:53:35.636 -> 12288
15:53:35.636 -> 8
15:53:35.636 -> 384
15:53:35.636 -> I2C write address: 0x52 - register: 0x40 -  value: 0x12 0xC 0x1 0x25 0xAD 0x3 0x52 0x1C
15:53:35.671 -> I2C write address: 0x52 - register: 0x12 -  value: 0x0
15:53:35.671 -> 1. Write 0x0 with result 0x0
15:53:35.671 -> I2C write address: 0x52 - register: 0x12 -  value: 0x8
15:53:35.671 -> 2. Write 0x8 with result 0x0
15:53:35.776 -> I2C read address: 0x52 - register: 0x20
15:53:35.776 -> 3. Read DATA_STATUS with 0x41	0x1
15:53:35.776 -> I2C read address: 0x52 - register: 0x4E
15:53:35.776 -> 4. Read GPR_READ_6 with 0x2	0x9
15:53:35.776 -> 12288
15:53:35.776 -> 8
15:53:35.776 -> 392
15:53:35.776 -> I2C write address: 0x52 - register: 0x40 -  value: 0x52 0x19 0x12 0x4 0x7F 0x39 0x24 0x4
15:53:35.776 -> I2C write address: 0x52 - register: 0x12 -  value: 0x0
15:53:35.776 -> 1. Write 0x0 with result 0x0
15:53:35.776 -> I2C write address: 0x52 - register: 0x12 -  value: 0x8
15:53:35.810 -> 2. Write 0x8 with result 0x0
15:53:35.879 -> I2C read address: 0x52 - register: 0x20
15:53:35.879 -> 3. Read DATA_STATUS with 0x41	0x1
15:53:35.914 -> I2C read address: 0x52 - register: 0x4E
15:53:35.914 -> 4. Read GPR_READ_6 with 0x2	0x9
15:53:35.914 -> 12288
15:53:35.914 -> 8
15:53:35.914 -> 400
15:53:35.914 -> I2C write address: 0x52 - register: 0x40 -  value: 0x0 0xD0 0x52 0x1C 0x10 0x43 0x1 0xD4
15:53:35.914 -> I2C write address: 0x52 - register: 0x12 -  value: 0x0
15:53:35.914 -> 1. Write 0x0 with result 0x0
15:53:35.914 -> I2C write address: 0x52 - register: 0x12 -  value: 0x8
15:53:35.914 -> 2. Write 0x8 with result 0x0
15:53:36.018 -> I2C read address: 0x52 - register: 0x20
15:53:36.018 -> 3. Read DATA_STATUS with 0x41	0x1
15:53:36.018 -> I2C read address: 0x52 - register: 0x4E
15:53:36.018 -> 4. Read GPR_READ_6 with 0x2	0x9
15:53:36.018 -> 12288
15:53:36.018 -> 8
15:53:36.018 -> 408
15:53:36.053 -> I2C write address: 0x52 - register: 0x40 -  value: 0x40 0x0 0x49 0x1E 0xC2 0xB2 0xC 0x6
15:53:36.053 -> I2C write address: 0x52 - register: 0x12 -  value: 0x0
15:53:36.053 -> 1. Write 0x0 with result 0x0
15:53:36.053 -> I2C write address: 0x52 - register: 0x12 -  value: 0x8
15:53:36.053 -> 2. Write 0x8 with result 0x0
15:53:36.158 -> I2C read address: 0x52 - register: 0x20
15:53:36.158 -> 3. Read DATA_STATUS with 0x41	0x1
15:53:36.158 -> I2C read address: 0x52 - register: 0x4E
15:53:36.158 -> 4. Read GPR_READ_6 with 0x2	0x9
15:53:36.158 -> 12288
15:53:36.158 -> 8
15:53:36.158 -> 416
15:53:36.158 -> I2C write address: 0x52 - register: 0x40 -  value: 0xC0 0x9 0x20 0x18 0x40 0x1C 0x40 0x8
15:53:36.158 -> I2C write address: 0x52 - register: 0x12 -  value: 0x0
15:53:36.193 -> 1. Write 0x0 with result 0x0
15:53:36.193 -> I2C write address: 0x52 - register: 0x12 -  value: 0x8
15:53:36.193 -> 2. Write 0x8 with result 0x0
15:53:36.297 -> I2C read address: 0x52 - register: 0x20
15:53:36.297 -> 3. Read DATA_STATUS with 0x41	0x1
15:53:36.297 -> I2C read address: 0x52 - register: 0x4E
15:53:36.297 -> 4. Read GPR_READ_6 with 0x2	0x9
15:53:36.297 -> 12288
15:53:36.297 -> 8
15:53:36.297 -> 424
15:53:36.297 -> I2C write address: 0x52 - register: 0x40 -  value: 0x80 0x2A 0x2 0xD0 0x3 0xE0 0x0 0x20
15:53:36.297 -> I2C write address: 0x52 - register: 0x12 -  value: 0x0
15:53:36.297 -> 1. Write 0x0 with result 0x0
15:53:36.297 -> I2C write address: 0x52 - register: 0x12 -  value: 0x8
15:53:36.332 -> 2. Write 0x8 with result 0x0
15:53:36.400 -> I2C read address: 0x52 - register: 0x20
15:53:36.435 -> 3. Read DATA_STATUS with 0x41	0x1
15:53:36.435 -> I2C read address: 0x52 - register: 0x4E
15:53:36.435 -> 4. Read GPR_READ_6 with 0x2	0x9
15:53:36.435 -> 12288
15:53:36.435 -> 8
15:53:36.435 -> 432
15:53:36.435 -> I2C write address: 0x52 - register: 0x40 -  value: 0x70 0xBD 0x40 0x8 0x40 0x0 0x0 0x29
15:53:36.435 -> I2C write address: 0x52 - register: 0x12 -  value: 0x0
15:53:36.435 -> 1. Write 0x0 with result 0x0
15:53:36.435 -> I2C write address: 0x52 - register: 0x12 -  value: 0x8
15:53:36.435 -> 2. Write 0x8 with result 0x0
15:53:36.540 -> I2C read address: 0x52 - register: 0x20
15:53:36.540 -> 3. Read DATA_STATUS with 0x41	0x1
15:53:36.540 -> I2C read address: 0x52 - register: 0x4E
15:53:36.540 -> 4. Read GPR_READ_6 with 0x2	0x9
15:53:36.575 -> 12288
15:53:36.575 -> 8
15:53:36.575 -> 440
15:53:36.575 -> I2C write address: 0x52 - register: 0x40 -  value: 0x0 0xDA 0x0 0x20 0x18 0x43 0x70 0xBD
15:53:36.575 -> I2C write address: 0x52 - register: 0x12 -  value: 0x0
15:53:36.575 -> 1. Write 0x0 with result 0x0
15:53:36.575 -> I2C write address: 0x52 - register: 0x12 -  value: 0x8
15:53:36.575 -> 2. Write 0x8 with result 0x0
15:53:36.680 -> I2C read address: 0x52 - register: 0x20
15:53:36.680 -> 3. Read DATA_STATUS with 0x41	0x1
15:53:36.680 -> I2C read address: 0x52 - register: 0x4E
15:53:36.680 -> 4. Read GPR_READ_6 with 0x2	0x9
15:53:36.680 -> 12288
15:53:36.680 -> 8
15:53:36.680 -> 448
15:53:36.680 -> I2C write address: 0x52 - register: 0x40 -  value: 0x70 0xB5 0x2 0x46 0x4A 0x40 0xD5 0xF
15:53:36.714 -> I2C write address: 0x52 - register: 0x12 -  value: 0x0
15:53:36.714 -> 1. Write 0x0 with result 0x0
15:53:36.714 -> I2C write address: 0x52 - register: 0x12 -  value: 0x8
15:53:36.714 -> 2. Write 0x8 with result 0x0
15:53:36.817 -> I2C read address: 0x52 - register: 0x20
15:53:36.817 -> 3. Read DATA_STATUS with 0x41	0x1
15:53:36.817 -> I2C read address: 0x52 - register: 0x4E
15:53:36.817 -> 4. Read GPR_READ_6 with 0x2	0x9
15:53:36.817 -> 12288
15:53:36.817 -> 8
15:53:36.817 -> 456
15:53:36.817 -> I2C write address: 0x52 - register: 0x40 -  value: 0x40 0x0 0x4A 0x0 0xED 0x7 0x40 0x8
15:53:36.817 -> I2C write address: 0x52 - register: 0x12 -  value: 0x0
15:53:36.817 -> 1. Write 0x0 with result 0x0
15:53:36.852 -> I2C write address: 0x52 - register: 0x12 -  value: 0x8
15:53:36.852 -> 2. Write 0x8 with result 0x0
15:53:36.956 -> I2C read address: 0x52 - register: 0x20
15:53:36.956 -> 3. Read DATA_STATUS with 0x41	0x1
15:53:36.956 -> I2C read address: 0x52 - register: 0x4E
15:53:36.956 -> 4. Read GPR_READ_6 with 0x2	0x9
15:53:36.956 -> 12288
15:53:36.956 -> 8
15:53:36.956 -> 464
15:53:36.956 -> I2C write address: 0x52 - register: 0x40 -  value: 0x52 0x8 0x0 0x28 0x14 0xD0 0x0 0x2A
15:53:36.956 -> I2C write address: 0x52 - register: 0x12 -  value: 0x0
15:53:36.956 -> 1. Write 0x0 with result 0x0
15:53:36.956 -> I2C write address: 0x52 - register: 0x12 -  value: 0x8
15:53:36.956 -> 2. Write 0x8 with result 0x0
15:53:37.061 -> I2C read address: 0x52 - register: 0x20
15:53:37.061 -> 3. Read DATA_STATUS with 0x41	0x1
15:53:37.061 -> I2C read address: 0x52 - register: 0x4E
15:53:37.095 -> 4. Read GPR_READ_6 with 0x2	0x9
15:53:37.095 -> 12288
15:53:37.095 -> 8
15:53:37.095 -> 472
15:53:37.095 -> I2C write address: 0x52 - register: 0x40 -  value: 0x12 0xD0 0xC4 0xD 0xD3 0xD 0x41 0x2
15:53:37.095 -> I2C write address: 0x52 - register: 0x12 -  value: 0x0
15:53:37.095 -> 1. Write 0x0 with result 0x0
15:53:37.095 -> I2C write address: 0x52 - register: 0x12 -  value: 0x8
15:53:37.095 -> 2. Write 0x8 with result 0x0
15:53:37.199 -> I2C read address: 0x52 - register: 0x20
15:53:37.199 -> 3. Read DATA_STATUS with 0x41	0x1
15:53:37.199 -> I2C read address: 0x52 - register: 0x4E
15:53:37.199 -> 4. Read GPR_READ_6 with 0x2	0x9
15:53:37.199 -> 12288
15:53:37.199 -> 8
15:53:37.199 -> 480
15:53:37.199 -> I2C write address: 0x52 - register: 0x40 -  value: 0x1 0x20 0xC0 0x5 0x52 0x2 0x49 0xA
15:53:37.234 -> I2C write address: 0x52 - register: 0x12 -  value: 0x0
15:53:37.234 -> 1. Write 0x0 with result 0x0
15:53:37.234 -> I2C write address: 0x52 - register: 0x12 -  value: 0x8
15:53:37.234 -> 2. Write 0x8 with result 0x0
15:53:37.339 -> I2C read address: 0x52 - register: 0x20
15:53:37.339 -> 3. Read DATA_STATUS with 0x41	0x1
15:53:37.339 -> I2C read address: 0x52 - register: 0x4E
15:53:37.339 -> 4. Read GPR_READ_6 with 0x2	0x9
15:53:37.339 -> 12288
15:53:37.339 -> 8
15:53:37.339 -> 488
15:53:37.339 -> I2C write address: 0x52 - register: 0x40 -  value: 0x52 0xA 0xE4 0x1A 0x9 0x18 0x12 0x18
15:53:37.339 -> I2C write address: 0x52 - register: 0x12 -  value: 0x0
15:53:37.374 -> 1. Write 0x0 with result 0x0
15:53:37.374 -> I2C write address: 0x52 - register: 0x12 -  value: 0x8
15:53:37.374 -> 2. Write 0x8 with result 0x0
15:53:37.477 -> I2C read address: 0x52 - register: 0x20
15:53:37.477 -> 3. Read DATA_STATUS with 0x41	0x1
15:53:37.477 -> I2C read address: 0x52 - register: 0x4E
15:53:37.477 -> 4. Read GPR_READ_6 with 0x2	0x9
15:53:37.477 -> 12288
15:53:37.477 -> 8
15:53:37.477 -> 496
15:53:37.477 -> I2C write address: 0x52 - register: 0x40 -  value: 0x7D 0x34 0x91 0x42 0x1 0xD3 0x64 0x1C
15:53:37.477 -> I2C write address: 0x52 - register: 0x12 -  value: 0x0
15:53:37.477 -> 1. Write 0x0 with result 0x0
15:53:37.477 -> I2C write address: 0x52 - register: 0x12 -  value: 0x8
15:53:37.477 -> 2. Write 0x8 with result 0x0
15:53:37.580 -> I2C read address: 0x52 - register: 0x20
15:53:37.580 -> 3. Read DATA_STATUS with 0x41	0x1
15:53:37.615 -> I2C read address: 0x52 - register: 0x4E
15:53:37.615 -> 4. Read GPR_READ_6 with 0x2	0x9
15:53:37.615 -> 12288
15:53:37.615 -> 8
15:53:37.615 -> 504
15:53:37.615 -> I2C write address: 0x52 - register: 0x40 -  value: 0x0 0xE0 0x49 0x0 0x0 0x2C 0x1 0xDA
15:53:37.615 -> I2C write address: 0x52 - register: 0x12 -  value: 0x0
15:53:37.615 -> 1. Write 0x0 with result 0x0
15:53:37.615 -> I2C write address: 0x52 - register: 0x12 -  value: 0x8
15:53:37.615 -> 2. Write 0x8 with result 0x0
15:53:37.720 -> I2C read address: 0x52 - register: 0x20
15:53:37.720 -> 3. Read DATA_STATUS with 0x41	0x1
15:53:37.720 -> I2C read address: 0x52 - register: 0x4E
15:53:37.720 -> 4. Read GPR_READ_6 with 0x2	0x9
15:53:37.720 -> 12288
15:53:37.720 -> 8
15:53:37.720 -> 512
15:53:37.720 -> I2C write address: 0x52 - register: 0x40 -  value: 0x0 0x20 0x70 0xBD 0x0 0x23 0x91 0x42
15:53:37.755 -> I2C write address: 0x52 - register: 0x12 -  value: 0x0
15:53:37.755 -> 1. Write 0x0 with result 0x0
15:53:37.755 -> I2C write address: 0x52 - register: 0x12 -  value: 0x8
15:53:37.755 -> 2. Write 0x8 with result 0x0
15:53:37.858 -> I2C read address: 0x52 - register: 0x20
15:53:37.858 -> 3. Read DATA_STATUS with 0x41	0x1
15:53:37.858 -> I2C read address: 0x52 - register: 0x4E
15:53:37.858 -> 4. Read GPR_READ_6 with 0x2	0x9
15:53:37.858 -> 12288
15:53:37.858 -> 8
15:53:37.858 -> 520
15:53:37.858 -> I2C write address: 0x52 - register: 0x40 -  value: 0x1 0xD3 0x89 0x1A 0x3 0x43 0x40 0x8
15:53:37.858 -> I2C write address: 0x52 - register: 0x12 -  value: 0x0
15:53:37.893 -> 1. Write 0x0 with result 0x0
15:53:37.893 -> I2C write address: 0x52 - register: 0x12 -  value: 0x8
15:53:37.893 -> 2. Write 0x8 with result 0x0
15:53:37.998 -> I2C read address: 0x52 - register: 0x20
15:53:37.998 -> 3. Read DATA_STATUS with 0x41	0x1
15:53:37.998 -> I2C read address: 0x52 - register: 0x4E
15:53:37.998 -> 4. Read GPR_READ_6 with 0x2	0x9
15:53:37.998 -> 12288
15:53:37.998 -> 8
15:53:37.998 -> 528
15:53:37.998 -> I2C write address: 0x52 - register: 0x40 -  value: 0x49 0x0 0x0 0x28 0xF7 0xD1 0x0 0x29
15:53:37.998 -> I2C write address: 0x52 - register: 0x12 -  value: 0x0
15:53:37.998 -> 1. Write 0x0 with result 0x0
15:53:37.998 -> I2C write address: 0x52 - register: 0x12 -  value: 0x8
15:53:38.033 -> 2. Write 0x8 with result 0x0
15:53:38.103 -> I2C read address: 0x52 - register: 0x20
15:53:38.103 -> 3. Read DATA_STATUS with 0x41	0x1
15:53:38.103 -> I2C read address: 0x52 - register: 0x4E
15:53:38.138 -> 4. Read GPR_READ_6 with 0x2	0x9
15:53:38.138 -> 12288
15:53:38.138 -> 8
15:53:38.138 -> 536
15:53:38.138 -> I2C write address: 0x52 - register: 0x40 -  value: 0xA 0xD0 0x91 0x42 0x2 0xD1 0x1 0x21
15:53:38.138 -> I2C write address: 0x52 - register: 0x12 -  value: 0x0
15:53:38.138 -> 1. Write 0x0 with result 0x0
15:53:38.138 -> I2C write address: 0x52 - register: 0x12 -  value: 0x8
15:53:38.138 -> 2. Write 0x8 with result 0x0
15:53:38.242 -> I2C read address: 0x52 - register: 0x20
15:53:38.242 -> 3. Read DATA_STATUS with 0x41	0x1
15:53:38.242 -> I2C read address: 0x52 - register: 0x4E
15:53:38.242 -> 4. Read GPR_READ_6 with 0x2	0x9
15:53:38.242 -> 12288
15:53:38.242 -> 8
15:53:38.242 -> 544
15:53:38.242 -> I2C write address: 0x52 - register: 0x40 -  value: 0xC9 0x7 0x5 0xE0 0x91 0x42 0x1 0xD2
15:53:38.277 -> I2C write address: 0x52 - register: 0x12 -  value: 0x0
15:53:38.277 -> 1. Write 0x0 with result 0x0
15:53:38.277 -> I2C write address: 0x52 - register: 0x12 -  value: 0x8
15:53:38.277 -> 2. Write 0x8 with result 0x0
15:53:38.380 -> I2C read address: 0x52 - register: 0x20
15:53:38.380 -> 3. Read DATA_STATUS with 0x41	0x1
15:53:38.380 -> I2C read address: 0x52 - register: 0x4E
15:53:38.380 -> 4. Read GPR_READ_6 with 0x2	0x9
15:53:38.380 -> 12288
15:53:38.380 -> 8
15:53:38.380 -> 552
15:53:38.380 -> I2C write address: 0x52 - register: 0x40 -  value: 0x1 0x21 0x1 0xE0 0x1 0x21 0xC9 0x43
15:53:38.415 -> I2C write address: 0x52 - register: 0x12 -  value: 0x0
15:53:38.415 -> 1. Write 0x0 with result 0x0
15:53:38.415 -> I2C write address: 0x52 - register: 0x12 -  value: 0x8
15:53:38.415 -> 2. Write 0x8 with result 0x0
15:53:38.520 -> I2C read address: 0x52 - register: 0x20
15:53:38.520 -> 3. Read DATA_STATUS with 0x41	0x1
15:53:38.520 -> I2C read address: 0x52 - register: 0x4E
15:53:38.520 -> 4. Read GPR_READ_6 with 0x2	0x9
15:53:38.520 -> 12288
15:53:38.520 -> 8
15:53:38.520 -> 560
15:53:38.520 -> I2C write address: 0x52 - register: 0x40 -  value: 0xE0 0x5 0xC0 0x18 0x40 0x19 0x0 0xF0
15:53:38.520 -> I2C write address: 0x52 - register: 0x12 -  value: 0x0
15:53:38.520 -> 1. Write 0x0 with result 0x0
15:53:38.555 -> I2C write address: 0x52 - register: 0x12 -  value: 0x8
15:53:38.555 -> 2. Write 0x8 with result 0x0
15:53:38.624 -> I2C read address: 0x52 - register: 0x20
15:53:38.624 -> 3. Read DATA_STATUS with 0x41	0x1
15:53:38.659 -> I2C read address: 0x52 - register: 0x4E
15:53:38.659 -> 4. Read GPR_READ_6 with 0x2	0x9
15:53:38.659 -> 12288
15:53:38.659 -> 8
15:53:38.659 -> 568
15:53:38.659 -> I2C write address: 0x52 - register: 0x40 -  value: 0x63 0xF8 0x70 0xBD 0x42 0x0 0x5 0xD0
15:53:38.659 -> I2C write address: 0x52 - register: 0x12 -  value: 0x0
15:53:38.659 -> 1. Write 0x0 with result 0x0
15:53:38.659 -> I2C write address: 0x52 - register: 0x12 -  value: 0x8
15:53:38.659 -> 2. Write 0x8 with result 0x0
15:53:38.763 -> I2C read address: 0x52 - register: 0x20
15:53:38.763 -> 3. Read DATA_STATUS with 0x41	0x1
15:53:38.763 -> I2C read address: 0x52 - register: 0x4E
15:53:38.763 -> 4. Read GPR_READ_6 with 0x2	0x9
15:53:38.763 -> 12288
15:53:38.797 -> 8
15:53:38.797 -> 576
15:53:38.797 -> I2C write address: 0x52 - register: 0x40 -  value: 0x42 0x0 0x12 0xE 0x52 0x42 0x8A 0x42
15:53:38.797 -> I2C write address: 0x52 - register: 0x12 -  value: 0x0
15:53:38.797 -> 1. Write 0x0 with result 0x0
15:53:38.797 -> I2C write address: 0x52 - register: 0x12 -  value: 0x8
15:53:38.797 -> 2. Write 0x8 with result 0x0
15:53:38.901 -> I2C read address: 0x52 - register: 0x20
15:53:38.901 -> 3. Read DATA_STATUS with 0x41	0x1
15:53:38.901 -> I2C read address: 0x52 - register: 0x4E
15:53:38.901 -> 4. Read GPR_READ_6 with 0x2	0x9
15:53:38.901 -> 12288
15:53:38.901 -> 8
15:53:38.901 -> 584
15:53:38.901 -> I2C write address: 0x52 - register: 0x40 -  value: 0x1 0xDB 0x0 0x20 0x70 0x47 0xC9 0x5
15:53:38.936 -> I2C write address: 0x52 - register: 0x12 -  value: 0x0
15:53:38.936 -> 1. Write 0x0 with result 0x0
15:53:38.936 -> I2C write address: 0x52 - register: 0x12 -  value: 0x8
15:53:38.936 -> 2. Write 0x8 with result 0x0
15:53:39.040 -> I2C read address: 0x52 - register: 0x20
15:53:39.040 -> 3. Read DATA_STATUS with 0x41	0x1
15:53:39.040 -> I2C read address: 0x52 - register: 0x4E
15:53:39.040 -> 4. Read GPR_READ_6 with 0x2	0x9
15:53:39.040 -> 12288
15:53:39.040 -> 8
15:53:39.040 -> 592
15:53:39.040 -> I2C write address: 0x52 - register: 0x40 -  value: 0x8 0x18 0x70 0x47 0x10 0xB5 0x41 0x0
15:53:39.040 -> I2C write address: 0x52 - register: 0x12 -  value: 0x0
15:53:39.075 -> 1. Write 0x0 with result 0x0
15:53:39.075 -> I2C write address: 0x52 - register: 0x12 -  value: 0x8
15:53:39.075 -> 2. Write 0x8 with result 0x0
15:53:39.146 -> I2C read address: 0x52 - register: 0x20
15:53:39.180 -> 3. Read DATA_STATUS with 0x41	0x1
15:53:39.180 -> I2C read address: 0x52 - register: 0x4E
15:53:39.180 -> 4. Read GPR_READ_6 with 0x2	0x9
15:53:39.180 -> 12288
15:53:39.180 -> 8
15:53:39.180 -> 600
15:53:39.180 -> I2C write address: 0x52 - register: 0x40 -  value: 0xD 0xD0 0x41 0x0 0x9 0xE 0x96 0x29
15:53:39.180 -> I2C write address: 0x52 - register: 0x12 -  value: 0x0
15:53:39.180 -> 1. Write 0x0 with result 0x0
15:53:39.180 -> I2C write address: 0x52 - register: 0x12 -  value: 0x8
15:53:39.180 -> 2. Write 0x8 with result 0x0
15:53:39.284 -> I2C read address: 0x52 - register: 0x20
15:53:39.284 -> 3. Read DATA_STATUS with 0x41	0x1
15:53:39.284 -> I2C read address: 0x52 - register: 0x4E
15:53:39.284 -> 4. Read GPR_READ_6 with 0x2	0x9
15:53:39.319 -> 12288
15:53:39.319 -> 8
15:53:39.319 -> 608
15:53:39.319 -> I2C write address: 0x52 - register: 0x40 -  value: 0x9 0xDC 0x7E 0x29 0xA 0xDC 0x7 0xDB
15:53:39.319 -> I2C write address: 0x52 - register: 0x12 -  value: 0x0
15:53:39.319 -> 1. Write 0x0 with result 0x0
15:53:39.319 -> I2C write address: 0x52 - register: 0x12 -  value: 0x8
15:53:39.319 -> 2. Write 0x8 with result 0x0
15:53:39.422 -> I2C read address: 0x52 - register: 0x20
15:53:39.422 -> 3. Read DATA_STATUS with 0x41	0x1
15:53:39.422 -> I2C read address: 0x52 - register: 0x4E
15:53:39.422 -> 4. Read GPR_READ_6 with 0x2	0x9
15:53:39.422 -> 12288
15:53:39.422 -> 8
15:53:39.422 -> 616
15:53:39.422 -> I2C write address: 0x52 - register: 0x40 -  value: 0x41 0x2 0x5 0xD0 0xC0 0xF 0x7F 0x21
15:53:39.457 -> I2C write address: 0x52 - register: 0x12 -  value: 0x0
15:53:39.457 -> 1. Write 0x0 with result 0x0
15:53:39.457 -> I2C write address: 0x52 - register: 0x12 -  value: 0x8
15:53:39.457 -> 2. Write 0x8 with result 0x0
15:53:39.562 -> I2C read address: 0x52 - register: 0x20
15:53:39.562 -> 3. Read DATA_STATUS with 0x41	0x1
15:53:39.562 -> I2C read address: 0x52 - register: 0x4E
15:53:39.562 -> 4. Read GPR_READ_6 with 0x2	0x9
15:53:39.562 -> 12288
15:53:39.562 -> 8
15:53:39.562 -> 624
15:53:39.562 -> I2C write address: 0x52 - register: 0x40 -  value: 0xC0 0x7 0xC9 0x5 0x40 0x18 0x10 0xBD
15:53:39.562 -> I2C write address: 0x52 - register: 0x12 -  value: 0x0
15:53:39.562 -> 1. Write 0x0 with result 0x0
15:53:39.597 -> I2C write address: 0x52 - register: 0x12 -  value: 0x8
15:53:39.597 -> 2. Write 0x8 with result 0x0
15:53:39.702 -> I2C read address: 0x52 - register: 0x20
15:53:39.702 -> 3. Read DATA_STATUS with 0x41	0x1
15:53:39.702 -> I2C read address: 0x52 - register: 0x4E
15:53:39.702 -> 4. Read GPR_READ_6 with 0x2	0x9
15:53:39.702 -> 12288
15:53:39.702 -> 8
15:53:39.702 -> 632
15:53:39.702 -> I2C write address: 0x52 - register: 0x40 -  value: 0x0 0x20 0x10 0xBD 0x96 0x22 0x54 0x1A
15:53:39.702 -> I2C write address: 0x52 - register: 0x12 -  value: 0x0
15:53:39.702 -> 1. Write 0x0 with result 0x0
15:53:39.702 -> I2C write address: 0x52 - register: 0x12 -  value: 0x8
15:53:39.702 -> 2. Write 0x8 with result 0x0
15:53:39.805 -> I2C read address: 0x52 - register: 0x20
15:53:39.805 -> 3. Read DATA_STATUS with 0x41	0x1
15:53:39.805 -> I2C read address: 0x52 - register: 0x4E
15:53:39.840 -> 4. Read GPR_READ_6 with 0x2	0x9
15:53:39.840 -> 12288
15:53:39.840 -> 8
15:53:39.840 -> 640
15:53:39.840 -> I2C write address: 0x52 - register: 0x40 -  value: 0x20 0x21 0xA 0x1B 0x1 0x46 0x91 0x40
15:53:39.840 -> I2C write address: 0x52 - register: 0x12 -  value: 0x0
15:53:39.840 -> 1. Write 0x0 with result 0x0
15:53:39.840 -> I2C write address: 0x52 - register: 0x12 -  value: 0x8
15:53:39.840 -> 2. Write 0x8 with result 0x0
15:53:39.944 -> I2C read address: 0x52 - register: 0x20
15:53:39.944 -> 3. Read DATA_STATUS with 0x41	0x1
15:53:39.944 -> I2C read address: 0x52 - register: 0x4E
15:53:39.944 -> 4. Read GPR_READ_6 with 0x2	0x9
15:53:39.944 -> 12288
15:53:39.944 -> 8
15:53:39.944 -> 648
15:53:39.944 -> I2C write address: 0x52 - register: 0x40 -  value: 0xE0 0x40 0x0 0xF0 0x39 0xF8 0xA0 0x40
15:53:39.979 -> I2C write address: 0x52 - register: 0x12 -  value: 0x0
15:53:39.979 -> 1. Write 0x0 with result 0x0
15:53:39.979 -> I2C write address: 0x52 - register: 0x12 -  value: 0x8
15:53:39.979 -> 2. Write 0x8 with result 0x0
15:53:40.082 -> I2C read address: 0x52 - register: 0x20
15:53:40.082 -> 3. Read DATA_STATUS with 0x41	0x1
15:53:40.082 -> I2C read address: 0x52 - register: 0x4E
15:53:40.082 -> 4. Read GPR_READ_6 with 0x2	0x9
15:53:40.082 -> 12288
15:53:40.082 -> 8
15:53:40.082 -> 656
15:53:40.082 -> I2C write address: 0x52 - register: 0x40 -  value: 0x10 0xBD 0xC2 0x17 0xC1 0xF 0x50 0x40
15:53:40.082 -> I2C write address: 0x52 - register: 0x12 -  value: 0x0
15:53:40.116 -> 1. Write 0x0 with result 0x0
15:53:40.116 -> I2C write address: 0x52 - register: 0x12 -  value: 0x8
15:53:40.116 -> 2. Write 0x8 with result 0x0
15:53:40.220 -> I2C read address: 0x52 - register: 0x20
15:53:40.220 -> 3. Read DATA_STATUS with 0x41	0x1
15:53:40.220 -> I2C read address: 0x52 - register: 0x4E
15:53:40.220 -> 4. Read GPR_READ_6 with 0x2	0x9
15:53:40.220 -> 12288
15:53:40.220 -> 8
15:53:40.220 -> 664
15:53:40.220 -> I2C write address: 0x52 - register: 0x40 -  value: 0x10 0xB5 0x40 0x18 0xCA 0x7 0x96 0x23
15:53:40.220 -> I2C write address: 0x52 - register: 0x12 -  value: 0x0
15:53:40.220 -> 1. Write 0x0 with result 0x0
15:53:40.220 -> I2C write address: 0x52 - register: 0x12 -  value: 0x8
15:53:40.255 -> 2. Write 0x8 with result 0x0
15:53:40.325 -> I2C read address: 0x52 - register: 0x20
15:53:40.325 -> 3. Read DATA_STATUS with 0x41	0x1
15:53:40.360 -> I2C read address: 0x52 - register: 0x4E
15:53:40.360 -> 4. Read GPR_READ_6 with 0x2	0x9
15:53:40.360 -> 12288
15:53:40.360 -> 8
15:53:40.360 -> 672
15:53:40.360 -> I2C write address: 0x52 - register: 0x40 -  value: 0x0 0x21 0x0 0xF0 0x35 0xF8 0x10 0xBD
15:53:40.360 -> I2C write address: 0x52 - register: 0x12 -  value: 0x0
15:53:40.360 -> 1. Write 0x0 with result 0x0
15:53:40.360 -> I2C write address: 0x52 - register: 0x12 -  value: 0x8
15:53:40.360 -> 2. Write 0x8 with result 0x0
15:53:40.463 -> I2C read address: 0x52 - register: 0x20
15:53:40.463 -> 3. Read DATA_STATUS with 0x41	0x1
15:53:40.463 -> I2C read address: 0x52 - register: 0x4E
15:53:40.463 -> 4. Read GPR_READ_6 with 0x2	0x9
15:53:40.498 -> 12288
15:53:40.498 -> 8
15:53:40.498 -> 680
15:53:40.498 -> I2C write address: 0x52 - register: 0x40 -  value: 0xC2 0xF 0x41 0x0 0x40 0x2 0x1 0x23
15:53:40.498 -> I2C write address: 0x52 - register: 0x12 -  value: 0x0
15:53:40.498 -> 1. Write 0x0 with result 0x0
15:53:40.498 -> I2C write address: 0x52 - register: 0x12 -  value: 0x8
15:53:40.498 -> 2. Write 0x8 with result 0x0
15:53:40.603 -> I2C read address: 0x52 - register: 0x20
15:53:40.603 -> 3. Read DATA_STATUS with 0x41	0x1
15:53:40.603 -> I2C read address: 0x52 - register: 0x4E
15:53:40.603 -> 4. Read GPR_READ_6 with 0x2	0x9
15:53:40.603 -> 12288
15:53:40.603 -> 8
15:53:40.603 -> 688
15:53:40.603 -> I2C write address: 0x52 - register: 0x40 -  value: 0x40 0xA 0xDB 0x5 0xD2 0x7 0x9 0xE
15:53:40.638 -> I2C write address: 0x52 - register: 0x12 -  value: 0x0
15:53:40.638 -> 1. Write 0x0 with result 0x0
15:53:40.638 -> I2C write address: 0x52 - register: 0x12 -  value: 0x8
15:53:40.638 -> 2. Write 0x8 with result 0x0
15:53:40.742 -> I2C read address: 0x52 - register: 0x20
15:53:40.742 -> 3. Read DATA_STATUS with 0x41	0x1
15:53:40.742 -> I2C read address: 0x52 - register: 0x4E
15:53:40.742 -> 4. Read GPR_READ_6 with 0x2	0x9
15:53:40.742 -> 12288
15:53:40.742 -> 8
15:53:40.742 -> 696
15:53:40.742 -> I2C write address: 0x52 - register: 0x40 -  value: 0xC0 0x18 0x7F 0x29 0x1 0xDA 0x0 0x20
15:53:40.742 -> I2C write address: 0x52 - register: 0x12 -  value: 0x0
15:53:40.742 -> 1. Write 0x0 with result 0x0
15:53:40.742 -> I2C write address: 0x52 - register: 0x12 -  value: 0x8
15:53:40.777 -> 2. Write 0x8 with result 0x0
15:53:40.845 -> I2C read address: 0x52 - register: 0x20
15:53:40.880 -> 3. Read DATA_STATUS with 0x41	0x1
15:53:40.880 -> I2C read address: 0x52 - register: 0x4E
15:53:40.880 -> 4. Read GPR_READ_6 with 0x2	0x9
15:53:40.880 -> 12288
15:53:40.880 -> 8
15:53:40.880 -> 704
15:53:40.880 -> I2C write address: 0x52 - register: 0x40 -  value: 0x70 0x47 0x96 0x29 0x3 0xDC 0x96 0x23
15:53:40.880 -> I2C write address: 0x52 - register: 0x12 -  value: 0x0
15:53:40.880 -> 1. Write 0x0 with result 0x0
15:53:40.880 -> I2C write address: 0x52 - register: 0x12 -  value: 0x8
15:53:40.880 -> 2. Write 0x8 with result 0x0
15:53:40.984 -> I2C read address: 0x52 - register: 0x20
15:53:40.984 -> 3. Read DATA_STATUS with 0x41	0x1
15:53:40.984 -> I2C read address: 0x52 - register: 0x4E
15:53:40.984 -> 4. Read GPR_READ_6 with 0x2	0x9
15:53:41.019 -> 12288
15:53:41.019 -> 8
15:53:41.019 -> 712
15:53:41.019 -> I2C write address: 0x52 - register: 0x40 -  value: 0x59 0x1A 0xC8 0x40 0x1 0xE0 0x96 0x39
15:53:41.019 -> I2C write address: 0x52 - register: 0x12 -  value: 0x0
15:53:41.019 -> 1. Write 0x0 with result 0x0
15:53:41.019 -> I2C write address: 0x52 - register: 0x12 -  value: 0x8
15:53:41.019 -> 2. Write 0x8 with result 0x0
15:53:41.124 -> I2C read address: 0x52 - register: 0x20
15:53:41.124 -> 3. Read DATA_STATUS with 0x41	0x1
15:53:41.124 -> I2C read address: 0x52 - register: 0x4E
15:53:41.124 -> 4. Read GPR_READ_6 with 0x2	0x9
15:53:41.124 -> 12288
15:53:41.124 -> 8
15:53:41.124 -> 720
15:53:41.124 -> I2C write address: 0x52 - register: 0x40 -  value: 0x88 0x40 0x0 0x2A 0xF4 0xD0 0x40 0x42
15:53:41.159 -> I2C write address: 0x52 - register: 0x12 -  value: 0x0
15:53:41.159 -> 1. Write 0x0 with result 0x0
15:53:41.159 -> I2C write address: 0x52 - register: 0x12 -  value: 0x8
15:53:41.159 -> 2. Write 0x8 with result 0x0
15:53:41.262 -> I2C read address: 0x52 - register: 0x20
15:53:41.262 -> 3. Read DATA_STATUS with 0x41	0x1
15:53:41.262 -> I2C read address: 0x52 - register: 0x4E
15:53:41.262 -> 4. Read GPR_READ_6 with 0x2	0x9
15:53:41.262 -> 12288
15:53:41.262 -> 8
15:53:41.262 -> 728
15:53:41.262 -> I2C write address: 0x52 - register: 0x40 -  value: 0x70 0x47 0x0 0x0 0x6 0x4C 0x1 0x25
15:53:41.262 -> I2C write address: 0x52 - register: 0x12 -  value: 0x0
15:53:41.262 -> 1. Write 0x0 with result 0x0
15:53:41.297 -> I2C write address: 0x52 - register: 0x12 -  value: 0x8
15:53:41.297 -> 2. Write 0x8 with result 0x0
15:53:41.367 -> I2C read address: 0x52 - register: 0x20
15:53:41.401 -> 3. Read DATA_STATUS with 0x41	0x1
15:53:41.401 -> I2C read address: 0x52 - register: 0x4E
15:53:41.401 -> 4. Read GPR_READ_6 with 0x2	0x9
15:53:41.401 -> 12288
15:53:41.401 -> 8
15:53:41.401 -> 736
15:53:41.401 -> I2C write address: 0x52 - register: 0x40 -  value: 0x6 0x4E 0x5 0xE0 0xE3 0x68 0x7 0xCC
15:53:41.401 -> I2C write address: 0x52 - register: 0x12 -  value: 0x0
15:53:41.401 -> 1. Write 0x0 with result 0x0
15:53:41.401 -> I2C write address: 0x52 - register: 0x12 -  value: 0x8
15:53:41.401 -> 2. Write 0x8 with result 0x0
15:53:41.506 -> I2C read address: 0x52 - register: 0x20
15:53:41.506 -> 3. Read DATA_STATUS with 0x41	0x1
15:53:41.506 -> I2C read address: 0x52 - register: 0x4E
15:53:41.541 -> 4. Read GPR_READ_6 with 0x2	0x9
15:53:41.541 -> 12288
15:53:41.541 -> 8
15:53:41.541 -> 744
15:53:41.541 -> I2C write address: 0x52 - register: 0x40 -  value: 0x2B 0x43 0xC 0x3C 0x98 0x47 0x10 0x34
15:53:41.541 -> I2C write address: 0x52 - register: 0x12 -  value: 0x0
15:53:41.541 -> 1. Write 0x0 with result 0x0
15:53:41.541 -> I2C write address: 0x52 - register: 0x12 -  value: 0x8
15:53:41.541 -> 2. Write 0x8 with result 0x0
15:53:41.645 -> I2C read address: 0x52 - register: 0x20
15:53:41.645 -> 3. Read DATA_STATUS with 0x41	0x1
15:53:41.645 -> I2C read address: 0x52 - register: 0x4E
15:53:41.645 -> 4. Read GPR_READ_6 with 0x2	0x9
15:53:41.645 -> 12288
15:53:41.645 -> 8
15:53:41.645 -> 752
15:53:41.645 -> I2C write address: 0x52 - register: 0x40 -  value: 0xB4 0x42 0xF7 0xD3 0xFF 0xF7 0xB2 0xFE
15:53:41.678 -> I2C write address: 0x52 - register: 0x12 -  value: 0x0
15:53:41.678 -> 1. Write 0x0 with result 0x0
15:53:41.678 -> I2C write address: 0x52 - register: 0x12 -  value: 0x8
15:53:41.678 -> 2. Write 0x8 with result 0x0
15:53:41.782 -> I2C read address: 0x52 - register: 0x20
15:53:41.782 -> 3. Read DATA_STATUS with 0x41	0x1
15:53:41.782 -> I2C read address: 0x52 - register: 0x4E
15:53:41.782 -> 4. Read GPR_READ_6 with 0x2	0x9
15:53:41.782 -> 12288
15:53:41.782 -> 8
15:53:41.782 -> 760
15:53:41.782 -> I2C write address: 0x52 - register: 0x40 -  value: 0xC4 0x2E 0x0 0x10 0xE4 0x2E 0x0 0x10
15:53:41.782 -> I2C write address: 0x52 - register: 0x12 -  value: 0x0
15:53:41.816 -> 1. Write 0x0 with result 0x0
15:53:41.816 -> I2C write address: 0x52 - register: 0x12 -  value: 0x8
15:53:41.816 -> 2. Write 0x8 with result 0x0
15:53:41.921 -> I2C read address: 0x52 - register: 0x20
15:53:41.921 -> 3. Read DATA_STATUS with 0x41	0x1
15:53:41.921 -> I2C read address: 0x52 - register: 0x4E
15:53:41.921 -> 4. Read GPR_READ_6 with 0x2	0x9
15:53:41.921 -> 12288
15:53:41.921 -> 8
15:53:41.921 -> 768
15:53:41.921 -> I2C write address: 0x52 - register: 0x40 -  value: 0x0 0x29 0x4 0xDA 0x40 0x1C 0x49 0x0
15:53:41.921 -> I2C write address: 0x52 - register: 0x12 -  value: 0x0
15:53:41.921 -> 1. Write 0x0 with result 0x0
15:53:41.921 -> I2C write address: 0x52 - register: 0x12 -  value: 0x8
15:53:41.955 -> 2. Write 0x8 with result 0x0
15:53:42.025 -> I2C read address: 0x52 - register: 0x20
15:53:42.025 -> 3. Read DATA_STATUS with 0x41	0x1
15:53:42.060 -> I2C read address: 0x52 - register: 0x4E
15:53:42.060 -> 4. Read GPR_READ_6 with 0x2	0x9
15:53:42.060 -> 12288
15:53:42.060 -> 8
15:53:42.060 -> 776
15:53:42.060 -> I2C write address: 0x52 - register: 0x40 -  value: 0x1 0xD1 0x40 0x8 0x40 0x0 0x70 0x47
15:53:42.060 -> I2C write address: 0x52 - register: 0x12 -  value: 0x0
15:53:42.060 -> 1. Write 0x0 with result 0x0
15:53:42.060 -> I2C write address: 0x52 - register: 0x12 -  value: 0x8
15:53:42.060 -> 2. Write 0x8 with result 0x0
15:53:42.165 -> I2C read address: 0x52 - register: 0x20
15:53:42.165 -> 3. Read DATA_STATUS with 0x41	0x1
15:53:42.165 -> I2C read address: 0x52 - register: 0x4E
15:53:42.165 -> 4. Read GPR_READ_6 with 0x2	0x9
15:53:42.200 -> 12288
15:53:42.200 -> 8
15:53:42.200 -> 784
15:53:42.200 -> I2C write address: 0x52 - register: 0x40 -  value: 0x70 0xB4 0x0 0x24 0x5 0xC 0x5 0xD1
15:53:42.200 -> I2C write address: 0x52 - register: 0x12 -  value: 0x0
15:53:42.200 -> 1. Write 0x0 with result 0x0
15:53:42.200 -> I2C write address: 0x52 - register: 0x12 -  value: 0x8
15:53:42.200 -> 2. Write 0x8 with result 0x0
15:53:42.304 -> I2C read address: 0x52 - register: 0x20
15:53:42.304 -> 3. Read DATA_STATUS with 0x41	0x1
15:53:42.304 -> I2C read address: 0x52 - register: 0x4E
15:53:42.304 -> 4. Read GPR_READ_6 with 0x2	0x9
15:53:42.304 -> 12288
15:53:42.304 -> 8
15:53:42.304 -> 792
15:53:42.304 -> I2C write address: 0x52 - register: 0x40 -  value: 0x10 0x24 0x0 0x4 0x2 0xD1 0x0 0x29
15:53:42.338 -> I2C write address: 0x52 - register: 0x12 -  value: 0x0
15:53:42.338 -> 1. Write 0x0 with result 0x0
15:53:42.338 -> I2C write address: 0x52 - register: 0x12 -  value: 0x8
15:53:42.338 -> 2. Write 0x8 with result 0x0
15:53:42.442 -> I2C read address: 0x52 - register: 0x20
15:53:42.442 -> 3. Read DATA_STATUS with 0x41	0x1
15:53:42.442 -> I2C read address: 0x52 - register: 0x4E
15:53:42.442 -> 4. Read GPR_READ_6 with 0x2	0x9
15:53:42.442 -> 12288
15:53:42.442 -> 8
15:53:42.442 -> 800
15:53:42.442 -> I2C write address: 0x52 - register: 0x40 -  value: 0x21 0xD0 0x11 0x24 0x5 0xE 0x1 0xD1
15:53:42.442 -> I2C write address: 0x52 - register: 0x12 -  value: 0x0
15:53:42.442 -> 1. Write 0x0 with result 0x0
15:53:42.442 -> I2C write address: 0x52 - register: 0x12 -  value: 0x8
15:53:42.477 -> 2. Write 0x8 with result 0x0
15:53:42.546 -> I2C read address: 0x52 - register: 0x20
15:53:42.581 -> 3. Read DATA_STATUS with 0x41	0x1
15:53:42.581 -> I2C read address: 0x52 - register: 0x4E
15:53:42.581 -> 4. Read GPR_READ_6 with 0x2	0x9
15:53:42.581 -> 12288
15:53:42.581 -> 8
15:53:42.581 -> 808
15:53:42.581 -> I2C write address: 0x52 - register: 0x40 -  value: 0x0 0x2 0x8 0x34 0x5 0xF 0x1 0xD1
15:53:42.581 -> I2C write address: 0x52 - register: 0x12 -  value: 0x0
15:53:42.581 -> 1. Write 0x0 with result 0x0
15:53:42.581 -> I2C write address: 0x52 - register: 0x12 -  value: 0x8
15:53:42.581 -> 2. Write 0x8 with result 0x0
15:53:42.686 -> I2C read address: 0x52 - register: 0x20
15:53:42.686 -> 3. Read DATA_STATUS with 0x41	0x1
15:53:42.686 -> I2C read address: 0x52 - register: 0x4E
15:53:42.686 -> 4. Read GPR_READ_6 with 0x2	0x9
15:53:42.720 -> 12288
15:53:42.720 -> 8
15:53:42.720 -> 816
15:53:42.720 -> I2C write address: 0x52 - register: 0x40 -  value: 0x0 0x1 0x24 0x1D 0x85 0xF 0x1 0xD1
15:53:42.720 -> I2C write address: 0x52 - register: 0x12 -  value: 0x0
15:53:42.720 -> 1. Write 0x0 with result 0x0
15:53:42.720 -> I2C write address: 0x52 - register: 0x12 -  value: 0x8
15:53:42.720 -> 2. Write 0x8 with result 0x0
15:53:42.824 -> I2C read address: 0x52 - register: 0x20
15:53:42.824 -> 3. Read DATA_STATUS with 0x41	0x1
15:53:42.824 -> I2C read address: 0x52 - register: 0x4E
15:53:42.824 -> 4. Read GPR_READ_6 with 0x2	0x9
15:53:42.824 -> 12288
15:53:42.824 -> 8
15:53:42.824 -> 824
15:53:42.824 -> I2C write address: 0x52 - register: 0x40 -  value: 0x80 0x0 0xA4 0x1C 0x0 0x28 0x1 0xDB
15:53:42.859 -> I2C write address: 0x52 - register: 0x12 -  value: 0x0
15:53:42.859 -> 1. Write 0x0 with result 0x0
15:53:42.859 -> I2C write address: 0x52 - register: 0x12 -  value: 0x8
15:53:42.859 -> 2. Write 0x8 with result 0x0
15:53:42.964 -> I2C read address: 0x52 - register: 0x20
15:53:42.964 -> 3. Read DATA_STATUS with 0x41	0x1
15:53:42.964 -> I2C read address: 0x52 - register: 0x4E
15:53:42.964 -> 4. Read GPR_READ_6 with 0x2	0x9
15:53:42.964 -> 12288
15:53:42.964 -> 8
15:53:42.964 -> 832
15:53:42.964 -> I2C write address: 0x52 - register: 0x40 -  value: 0x40 0x0 0x64 0x1C 0x0 0x29 0x8 0xD0
15:53:42.964 -> I2C write address: 0x52 - register: 0x12 -  value: 0x0
15:53:42.964 -> 1. Write 0x0 with result 0x0
15:53:42.999 -> I2C write address: 0x52 - register: 0x12 -  value: 0x8
15:53:42.999 -> 2. Write 0x8 with result 0x0
15:53:43.069 -> I2C read address: 0x52 - register: 0x20
15:53:43.103 -> 3. Read DATA_STATUS with 0x41	0x1
15:53:43.103 -> I2C read address: 0x52 - register: 0x4E
15:53:43.103 -> 4. Read GPR_READ_6 with 0x2	0x9
15:53:43.103 -> 12288
15:53:43.103 -> 8
15:53:43.103 -> 840
15:53:43.103 -> I2C write address: 0x52 - register: 0x40 -  value: 0x20 0x25 0x2E 0x1B 0xD 0x46 0xF5 0x40
15:53:43.103 -> I2C write address: 0x52 - register: 0x12 -  value: 0x0
15:53:43.103 -> 1. Write 0x0 with result 0x0
15:53:43.103 -> I2C write address: 0x52 - register: 0x12 -  value: 0x8
15:53:43.103 -> 2. Write 0x8 with result 0x0
15:53:43.208 -> I2C read address: 0x52 - register: 0x20
15:53:43.208 -> 3. Read DATA_STATUS with 0x41	0x1
15:53:43.208 -> I2C read address: 0x52 - register: 0x4E
15:53:43.208 -> 4. Read GPR_READ_6 with 0x2	0x9
15:53:43.243 -> 12288
15:53:43.243 -> 8
15:53:43.243 -> 848
15:53:43.243 -> I2C write address: 0x52 - register: 0x40 -  value: 0xA1 0x40 0x0 0xD0 0x1 0x21 0x29 0x43
15:53:43.243 -> I2C write address: 0x52 - register: 0x12 -  value: 0x0
15:53:43.243 -> 1. Write 0x0 with result 0x0
15:53:43.243 -> I2C write address: 0x52 - register: 0x12 -  value: 0x8
15:53:43.243 -> 2. Write 0x8 with result 0x0
15:53:43.348 -> I2C read address: 0x52 - register: 0x20
15:53:43.348 -> 3. Read DATA_STATUS with 0x41	0x1
15:53:43.348 -> I2C read address: 0x52 - register: 0x4E
15:53:43.348 -> 4. Read GPR_READ_6 with 0x2	0x9
15:53:43.348 -> 12288
15:53:43.348 -> 8
15:53:43.348 -> 856
15:53:43.348 -> I2C write address: 0x52 - register: 0x40 -  value: 0x8 0x43 0x1 0x6 0x1B 0x1B 0x0 0xA
15:53:43.383 -> I2C write address: 0x52 - register: 0x12 -  value: 0x0
15:53:43.383 -> 1. Write 0x0 with result 0x0
15:53:43.383 -> I2C write address: 0x52 - register: 0x12 -  value: 0x8
15:53:43.383 -> 2. Write 0x8 with result 0x0
15:53:43.486 -> I2C read address: 0x52 - register: 0x20
15:53:43.486 -> 3. Read DATA_STATUS with 0x41	0x1
15:53:43.486 -> I2C read address: 0x52 - register: 0x4E
15:53:43.486 -> 4. Read GPR_READ_6 with 0x2	0x9
15:53:43.486 -> 12288
15:53:43.486 -> 8
15:53:43.486 -> 864
15:53:43.486 -> I2C write address: 0x52 - register: 0x40 -  value: 0xDB 0x1D 0x2 0xD5 0x0 0x20 0x70 0xBC
15:53:43.486 -> I2C write address: 0x52 - register: 0x12 -  value: 0x0
15:53:43.486 -> 1. Write 0x0 with result 0x0
15:53:43.486 -> I2C write address: 0x52 - register: 0x12 -  value: 0x8
15:53:43.521 -> 2. Write 0x8 with result 0x0
15:53:43.591 -> I2C read address: 0x52 - register: 0x20
15:53:43.591 -> 3. Read DATA_STATUS with 0x41	0x1
15:53:43.626 -> I2C read address: 0x52 - register: 0x4E
15:53:43.626 -> 4. Read GPR_READ_6 with 0x2	0x9
15:53:43.626 -> 12288
15:53:43.626 -> 8
15:53:43.626 -> 872
15:53:43.626 -> I2C write address: 0x52 - register: 0x40 -  value: 0x70 0x47 0xDB 0x5 0x18 0x18 0x80 0x18
15:53:43.626 -> I2C write address: 0x52 - register: 0x12 -  value: 0x0
15:53:43.626 -> 1. Write 0x0 with result 0x0
15:53:43.626 -> I2C write address: 0x52 - register: 0x12 -  value: 0x8
15:53:43.626 -> 2. Write 0x8 with result 0x0
15:53:43.731 -> I2C read address: 0x52 - register: 0x20
15:53:43.731 -> 3. Read DATA_STATUS with 0x41	0x1
15:53:43.731 -> I2C read address: 0x52 - register: 0x4E
15:53:43.731 -> 4. Read GPR_READ_6 with 0x2	0x9
15:53:43.731 -> 12288
15:53:43.766 -> 8
15:53:43.766 -> 880
15:53:43.766 -> I2C write address: 0x52 - register: 0x40 -  value: 0x0 0x29 0xF8 0xDA 0x40 0x1C 0x49 0x0
15:53:43.766 -> I2C write address: 0x52 - register: 0x12 -  value: 0x0
15:53:43.766 -> 1. Write 0x0 with result 0x0
15:53:43.766 -> I2C write address: 0x52 - register: 0x12 -  value: 0x8
15:53:43.766 -> 2. Write 0x8 with result 0x0
15:53:43.870 -> I2C read address: 0x52 - register: 0x20
15:53:43.870 -> 3. Read DATA_STATUS with 0x41	0x1
15:53:43.870 -> I2C read address: 0x52 - register: 0x4E
15:53:43.870 -> 4. Read GPR_READ_6 with 0x2	0x9
15:53:43.870 -> 12288
15:53:43.870 -> 8
15:53:43.870 -> 888
15:53:43.870 -> I2C write address: 0x52 - register: 0x40 -  value: 0xF5 0xD1 0x70 0xBC 0x40 0x8 0x40 0x0
15:53:43.904 -> I2C write address: 0x52 - register: 0x12 -  value: 0x0
15:53:43.904 -> 1. Write 0x0 with result 0x0
15:53:43.904 -> I2C write address: 0x52 - register: 0x12 -  value: 0x8
15:53:43.904 -> 2. Write 0x8 with result 0x0
15:53:44.009 -> I2C read address: 0x52 - register: 0x20
15:53:44.009 -> 3. Read DATA_STATUS with 0x41	0x1
15:53:44.009 -> I2C read address: 0x52 - register: 0x4E
15:53:44.009 -> 4. Read GPR_READ_6 with 0x2	0x9
15:53:44.009 -> 12288
15:53:44.009 -> 8
15:53:44.009 -> 896
15:53:44.009 -> I2C write address: 0x52 - register: 0x40 -  value: 0x70 0x47 0x0 0x0 0x70 0xB5 0x31 0x48
15:53:44.009 -> I2C write address: 0x52 - register: 0x12 -  value: 0x0
15:53:44.009 -> 1. Write 0x0 with result 0x0
15:53:44.009 -> I2C write address: 0x52 - register: 0x12 -  value: 0x8
15:53:44.044 -> 2. Write 0x8 with result 0x0
15:53:44.113 -> I2C read address: 0x52 - register: 0x20
15:53:44.148 -> 3. Read DATA_STATUS with 0x41	0x1
15:53:44.148 -> I2C read address: 0x52 - register: 0x4E
15:53:44.148 -> 4. Read GPR_READ_6 with 0x2	0x9
15:53:44.148 -> 12288
15:53:44.148 -> 8
15:53:44.148 -> 904
15:53:44.148 -> I2C write address: 0x52 - register: 0x40 -  value: 0x41 0x68 0x49 0x1C 0x41 0x60 0x30 0x4E
15:53:44.148 -> I2C write address: 0x52 - register: 0x12 -  value: 0x0
15:53:44.148 -> 1. Write 0x0 with result 0x0
15:53:44.148 -> I2C write address: 0x52 - register: 0x12 -  value: 0x8
15:53:44.148 -> 2. Write 0x8 with result 0x0
15:53:44.251 -> I2C read address: 0x52 - register: 0x20
15:53:44.251 -> 3. Read DATA_STATUS with 0x41	0x1
15:53:44.251 -> I2C read address: 0x52 - register: 0x4E
15:53:44.251 -> 4. Read GPR_READ_6 with 0x2	0x9
15:53:44.286 -> 12288
15:53:44.286 -> 8
15:53:44.286 -> 912
15:53:44.286 -> I2C write address: 0x52 - register: 0x40 -  value: 0x71 0x6A 0x30 0x4A 0xA 0x40 0x30 0x4C
15:53:44.286 -> I2C write address: 0x52 - register: 0x12 -  value: 0x0
15:53:44.286 -> 1. Write 0x0 with result 0x0
15:53:44.286 -> I2C write address: 0x52 - register: 0x12 -  value: 0x8
15:53:44.286 -> 2. Write 0x8 with result 0x0
15:53:44.390 -> I2C read address: 0x52 - register: 0x20
15:53:44.390 -> 3. Read DATA_STATUS with 0x41	0x1
15:53:44.390 -> I2C read address: 0x52 - register: 0x4E
15:53:44.390 -> 4. Read GPR_READ_6 with 0x2	0x9
15:53:44.390 -> 12288
15:53:44.390 -> 8
15:53:44.390 -> 920
15:53:44.390 -> I2C write address: 0x52 - register: 0x40 -  value: 0x22 0x81 0x4A 0xB 0x1 0x25 0x2A 0x40
15:53:44.425 -> I2C write address: 0x52 - register: 0x12 -  value: 0x0
15:53:44.425 -> 1. Write 0x0 with result 0x0
15:53:44.425 -> I2C write address: 0x52 - register: 0x12 -  value: 0x8
15:53:44.425 -> 2. Write 0x8 with result 0x0
15:53:44.530 -> I2C read address: 0x52 - register: 0x20
15:53:44.530 -> 3. Read DATA_STATUS with 0x41	0x1
15:53:44.530 -> I2C read address: 0x52 - register: 0x4E
15:53:44.530 -> 4. Read GPR_READ_6 with 0x2	0x9
15:53:44.530 -> 12288
15:53:44.530 -> 8
15:53:44.530 -> 928
15:53:44.530 -> I2C write address: 0x52 - register: 0x40 -  value: 0x22 0x73 0x89 0xB 0x3 0x22 0xA 0x40
15:53:44.530 -> I2C write address: 0x52 - register: 0x12 -  value: 0x0
15:53:44.530 -> 1. Write 0x0 with result 0x0
15:53:44.565 -> I2C write address: 0x52 - register: 0x12 -  value: 0x8
15:53:44.565 -> 2. Write 0x8 with result 0x0
15:53:44.669 -> I2C read address: 0x52 - register: 0x20
15:53:44.669 -> 3. Read DATA_STATUS with 0x41	0x1
15:53:44.669 -> I2C read address: 0x52 - register: 0x4E
15:53:44.669 -> 4. Read GPR_READ_6 with 0x2	0x9
15:53:44.669 -> 12288
15:53:44.669 -> 8
15:53:44.669 -> 936
15:53:44.669 -> I2C write address: 0x52 - register: 0x40 -  value: 0xE2 0x71 0x21 0x79 0xC 0x22 0x4A 0x43
15:53:44.669 -> I2C write address: 0x52 - register: 0x12 -  value: 0x0
15:53:44.669 -> 1. Write 0x0 with result 0x0
15:53:44.669 -> I2C write address: 0x52 - register: 0x12 -  value: 0x8
15:53:44.669 -> 2. Write 0x8 with result 0x0
15:53:44.774 -> I2C read address: 0x52 - register: 0x20
15:53:44.774 -> 3. Read DATA_STATUS with 0x41	0x1
15:53:44.774 -> I2C read address: 0x52 - register: 0x4E
15:53:44.808 -> 4. Read GPR_READ_6 with 0x2	0x9
15:53:44.808 -> 12288
15:53:44.808 -> 8
15:53:44.808 -> 944
15:53:44.808 -> I2C write address: 0x52 - register: 0x40 -  value: 0x80 0x69 0x81 0x18 0x8 0x22 0x89 0x56
15:53:44.808 -> I2C write address: 0x52 - register: 0x12 -  value: 0x0
15:53:44.808 -> 1. Write 0x0 with result 0x0
15:53:44.808 -> I2C write address: 0x52 - register: 0x12 -  value: 0x8
15:53:44.808 -> 2. Write 0x8 with result 0x0
15:53:44.912 -> I2C read address: 0x52 - register: 0x20
15:53:44.912 -> 3. Read DATA_STATUS with 0x41	0x1
15:53:44.912 -> I2C read address: 0x52 - register: 0x4E
15:53:44.912 -> 4. Read GPR_READ_6 with 0x2	0x9
15:53:44.912 -> 12288
15:53:44.912 -> 8
15:53:44.912 -> 952
15:53:44.912 -> I2C write address: 0x52 - register: 0x40 -  value: 0x0 0x29 0x31 0xDB 0x31 0x68 0x40 0x88
15:53:44.946 -> I2C write address: 0x52 - register: 0x12 -  value: 0x0
15:53:44.946 -> 1. Write 0x0 with result 0x0
15:53:44.946 -> I2C write address: 0x52 - register: 0x12 -  value: 0x8
15:53:44.946 -> 2. Write 0x8 with result 0x0
15:53:45.050 -> I2C read address: 0x52 - register: 0x20
15:53:45.050 -> 3. Read DATA_STATUS with 0x41	0x1
15:53:45.050 -> I2C read address: 0x52 - register: 0x4E
15:53:45.050 -> 4. Read GPR_READ_6 with 0x2	0x9
15:53:45.050 -> 12288
15:53:45.050 -> 8
15:53:45.050 -> 960
15:53:45.050 -> I2C write address: 0x52 - register: 0x40 -  value: 0x89 0xD 0x81 0x42 0x6 0xD2 0x30 0x68
15:53:45.050 -> I2C write address: 0x52 - register: 0x12 -  value: 0x0
15:53:45.085 -> 1. Write 0x0 with result 0x0
15:53:45.085 -> I2C write address: 0x52 - register: 0x12 -  value: 0x8
15:53:45.085 -> 2. Write 0x8 with result 0x0
15:53:45.189 -> I2C read address: 0x52 - register: 0x20
15:53:45.189 -> 3. Read DATA_STATUS with 0x41	0x1
15:53:45.189 -> I2C read address: 0x52 - register: 0x4E
15:53:45.189 -> 4. Read GPR_READ_6 with 0x2	0x9
15:53:45.189 -> 12288
15:53:45.189 -> 8
15:53:45.189 -> 968
15:53:45.189 -> I2C write address: 0x52 - register: 0x40 -  value: 0x80 0xD 0x3 0xD0 0x23 0x48 0x71 0x6B
15:53:45.189 -> I2C write address: 0x52 - register: 0x12 -  value: 0x0
15:53:45.189 -> 1. Write 0x0 with result 0x0
15:53:45.189 -> I2C write address: 0x52 - register: 0x12 -  value: 0x8
15:53:45.223 -> 2. Write 0x8 with result 0x0
15:53:45.293 -> I2C read address: 0x52 - register: 0x20
15:53:45.293 -> 3. Read DATA_STATUS with 0x41	0x1
15:53:45.327 -> I2C read address: 0x52 - register: 0x4E
15:53:45.327 -> 4. Read GPR_READ_6 with 0x2	0x9
15:53:45.327 -> 12288
15:53:45.327 -> 8
15:53:45.327 -> 976
15:53:45.327 -> I2C write address: 0x52 - register: 0x40 -  value: 0x1 0x40 0x21 0x61 0xF 0x20 0x0 0x2
15:53:45.327 -> I2C write address: 0x52 - register: 0x12 -  value: 0x0
15:53:45.327 -> 1. Write 0x0 with result 0x0
15:53:45.327 -> I2C write address: 0x52 - register: 0x12 -  value: 0x8
15:53:45.327 -> 2. Write 0x8 with result 0x0
15:53:45.430 -> I2C read address: 0x52 - register: 0x20
15:53:45.430 -> 3. Read DATA_STATUS with 0x41	0x1
15:53:45.430 -> I2C read address: 0x52 - register: 0x4E
15:53:45.430 -> 4. Read GPR_READ_6 with 0x2	0x9
15:53:45.465 -> 12288
15:53:45.465 -> 8
15:53:45.465 -> 984
15:53:45.465 -> I2C write address: 0x52 - register: 0x40 -  value: 0x31 0x68 0x1 0x42 0x20 0xD0 0x0 0xBF
15:53:45.465 -> I2C write address: 0x52 - register: 0x12 -  value: 0x0
15:53:45.465 -> 1. Write 0x0 with result 0x0
15:53:45.465 -> I2C write address: 0x52 - register: 0x12 -  value: 0x8
15:53:45.465 -> 2. Write 0x8 with result 0x0
15:53:45.570 -> I2C read address: 0x52 - register: 0x20
15:53:45.570 -> 3. Read DATA_STATUS with 0x41	0x1
15:53:45.570 -> I2C read address: 0x52 - register: 0x4E
15:53:45.570 -> 4. Read GPR_READ_6 with 0x2	0x9
15:53:45.570 -> 12288
15:53:45.570 -> 8
15:53:45.570 -> 992
15:53:45.570 -> I2C write address: 0x52 - register: 0x40 -  value: 0x0 0xBF 0x0 0xF0 0x39 0xFE 0xE1 0x79
15:53:45.605 -> I2C write address: 0x52 - register: 0x12 -  value: 0x0
15:53:45.605 -> 1. Write 0x0 with result 0x0
15:53:45.605 -> I2C write address: 0x52 - register: 0x12 -  value: 0x8
15:53:45.605 -> 2. Write 0x8 with result 0x0
15:53:45.709 -> I2C read address: 0x52 - register: 0x20
15:53:45.709 -> 3. Read DATA_STATUS with 0x41	0x1
15:53:45.709 -> I2C read address: 0x52 - register: 0x4E
15:53:45.709 -> 4. Read GPR_READ_6 with 0x2	0x9
15:53:45.709 -> 12288
15:53:45.709 -> 8
15:53:45.709 -> 1000
15:53:45.709 -> I2C write address: 0x52 - register: 0x40 -  value: 0x1D 0x48 0x0 0x29 0x4 0xD1 0x61 0x89
15:53:45.709 -> I2C write address: 0x52 - register: 0x12 -  value: 0x0
15:53:45.709 -> 1. Write 0x0 with result 0x0
15:53:45.709 -> I2C write address: 0x52 - register: 0x12 -  value: 0x8
15:53:45.744 -> 2. Write 0x8 with result 0x0
15:53:45.812 -> I2C read address: 0x52 - register: 0x20
15:53:45.846 -> 3. Read DATA_STATUS with 0x41	0x1
15:53:45.846 -> I2C read address: 0x52 - register: 0x4E
15:53:45.846 -> 4. Read GPR_READ_6 with 0x2	0x9
15:53:45.846 -> 12288
15:53:45.846 -> 8
15:53:45.846 -> 1008
15:53:45.846 -> I2C write address: 0x52 - register: 0x40 -  value: 0x1 0x40 0x89 0xB2 0x71 0x61 0xE1 0x79
15:53:45.846 -> I2C write address: 0x52 - register: 0x12 -  value: 0x0
15:53:45.846 -> 1. Write 0x0 with result 0x0
15:53:45.846 -> I2C write address: 0x52 - register: 0x12 -  value: 0x8
15:53:45.881 -> 2. Write 0x8 with result 0x0
15:53:45.950 -> I2C read address: 0x52 - register: 0x20
15:53:45.950 -> 3. Read DATA_STATUS with 0x41	0x1
15:53:45.985 -> I2C read address: 0x52 - register: 0x4E
15:53:45.985 -> 4. Read GPR_READ_6 with 0x2	0x9
15:53:45.985 -> 12288
15:53:45.985 -> 8
15:53:45.985 -> 1016
15:53:45.985 -> I2C write address: 0x52 - register: 0x40 -  value: 0x1 0x29 0x4 0xD1 0x61 0x89 0x1 0x40
15:53:45.985 -> I2C write address: 0x52 - register: 0x12 -  value: 0x0
15:53:45.985 -> 1. Write 0x0 with result 0x0
15:53:45.985 -> I2C write address: 0x52 - register: 0x12 -  value: 0x8
15:53:45.985 -> 2. Write 0x8 with result 0x0
15:53:46.089 -> I2C read address: 0x52 - register: 0x20
15:53:46.089 -> 3. Read DATA_STATUS with 0x41	0x1
15:53:46.089 -> I2C read address: 0x52 - register: 0x4E
15:53:46.089 -> 4. Read GPR_READ_6 with 0x2	0x9
15:53:46.089 -> 12288
15:53:46.089 -> 8
15:53:46.089 -> 1024
15:53:46.089 -> I2C write address: 0x52 - register: 0x40 -  value: 0x89 0xB2 0xB1 0x61 0xE1 0x79 0x2 0x29
15:53:46.124 -> I2C write address: 0x52 - register: 0x12 -  value: 0x0
15:53:46.124 -> 1. Write 0x0 with result 0x0
15:53:46.124 -> I2C write address: 0x52 - register: 0x12 -  value: 0x8
15:53:46.124 -> 2. Write 0x8 with result 0x0
15:53:46.229 -> I2C read address: 0x52 - register: 0x20
15:53:46.229 -> 3. Read DATA_STATUS with 0x41	0x1
15:53:46.229 -> I2C read address: 0x52 - register: 0x4E
15:53:46.229 -> 4. Read GPR_READ_6 with 0x2	0x9
15:53:46.229 -> 12288
15:53:46.229 -> 8
15:53:46.229 -> 1032
15:53:46.229 -> I2C write address: 0x52 - register: 0x40 -  value: 0x4 0xD1 0x61 0x89 0x1 0x40 0x89 0xB2
15:53:46.229 -> I2C write address: 0x52 - register: 0x12 -  value: 0x0
15:53:46.264 -> 1. Write 0x0 with result 0x0
15:53:46.264 -> I2C write address: 0x52 - register: 0x12 -  value: 0x8
15:53:46.264 -> 2. Write 0x8 with result 0x0
15:53:46.368 -> I2C read address: 0x52 - register: 0x20
15:53:46.368 -> 3. Read DATA_STATUS with 0x41	0x1
15:53:46.368 -> I2C read address: 0x52 - register: 0x4E
15:53:46.368 -> 4. Read GPR_READ_6 with 0x2	0x9
15:53:46.368 -> 12288
15:53:46.368 -> 8
15:53:46.368 -> 1040
15:53:46.368 -> I2C write address: 0x52 - register: 0x40 -  value: 0xF1 0x61 0xE1 0x79 0x3 0x29 0x3 0xD1
15:53:46.368 -> I2C write address: 0x52 - register: 0x12 -  value: 0x0
15:53:46.368 -> 1. Write 0x0 with result 0x0
15:53:46.368 -> I2C write address: 0x52 - register: 0x12 -  value: 0x8
15:53:46.402 -> 2. Write 0x8 with result 0x0
15:53:46.471 -> I2C read address: 0x52 - register: 0x20
15:53:46.471 -> 3. Read DATA_STATUS with 0x41	0x1
15:53:46.506 -> I2C read address: 0x52 - register: 0x4E
15:53:46.506 -> 4. Read GPR_READ_6 with 0x2	0x9
15:53:46.506 -> 12288
15:53:46.506 -> 8
15:53:46.506 -> 1048
15:53:46.506 -> I2C write address: 0x52 - register: 0x40 -  value: 0x61 0x89 0x1 0x40 0x88 0xB2 0x30 0x62
15:53:46.506 -> I2C write address: 0x52 - register: 0x12 -  value: 0x0
15:53:46.506 -> 1. Write 0x0 with result 0x0
15:53:46.506 -> I2C write address: 0x52 - register: 0x12 -  value: 0x8
15:53:46.506 -> 2. Write 0x8 with result 0x0
15:53:46.611 -> I2C read address: 0x52 - register: 0x20
15:53:46.611 -> 3. Read DATA_STATUS with 0x41	0x1
15:53:46.611 -> I2C read address: 0x52 - register: 0x4E
15:53:46.611 -> 4. Read GPR_READ_6 with 0x2	0x9
15:53:46.611 -> 12288
15:53:46.611 -> 8
15:53:46.611 -> 1056
15:53:46.611 -> I2C write address: 0x52 - register: 0x40 -  value: 0x20 0x7B 0x0 0x28 0x8 0xD0 0xE5 0x70
15:53:46.645 -> I2C write address: 0x52 - register: 0x12 -  value: 0x0
15:53:46.645 -> 1. Write 0x0 with result 0x0
15:53:46.645 -> I2C write address: 0x52 - register: 0x12 -  value: 0x8
15:53:46.645 -> 2. Write 0x8 with result 0x0
15:53:46.750 -> I2C read address: 0x52 - register: 0x20
15:53:46.750 -> 3. Read DATA_STATUS with 0x41	0x1
15:53:46.750 -> I2C read address: 0x52 - register: 0x4E
15:53:46.750 -> 4. Read GPR_READ_6 with 0x2	0x9
15:53:46.750 -> 12288
15:53:46.750 -> 8
15:53:46.750 -> 1064
15:53:46.750 -> I2C write address: 0x52 - register: 0x40 -  value: 0xA2 0x79 0x23 0x79 0x59 0x1C 0x0 0x20
15:53:46.750 -> I2C write address: 0x52 - register: 0x12 -  value: 0x0
15:53:46.785 -> 1. Write 0x0 with result 0x0
15:53:46.785 -> I2C write address: 0x52 - register: 0x12 -  value: 0x8
15:53:46.785 -> 2. Write 0x8 with result 0x0
15:53:46.888 -> I2C read address: 0x52 - register: 0x20
15:53:46.888 -> 3. Read DATA_STATUS with 0x41	0x1
15:53:46.888 -> I2C read address: 0x52 - register: 0x4E
15:53:46.888 -> 4. Read GPR_READ_6 with 0x2	0x9
15:53:46.888 -> 12288
15:53:46.888 -> 8
15:53:46.888 -> 1072
15:53:46.888 -> I2C write address: 0x52 - register: 0x40 -  value: 0x9A 0x42 0x0 0xD0 0x8 0x46 0x60 0x71
15:53:46.888 -> I2C write address: 0x52 - register: 0x12 -  value: 0x0
15:53:46.888 -> 1. Write 0x0 with result 0x0
15:53:46.888 -> I2C write address: 0x52 - register: 0x12 -  value: 0x8
15:53:46.923 -> 2. Write 0x8 with result 0x0
15:53:46.993 -> I2C read address: 0x52 - register: 0x20
15:53:47.028 -> 3. Read DATA_STATUS with 0x41	0x1
15:53:47.028 -> I2C read address: 0x52 - register: 0x4E
15:53:47.028 -> 4. Read GPR_READ_6 with 0x2	0x9
15:53:47.028 -> 12288
15:53:47.028 -> 8
15:53:47.028 -> 1080
15:53:47.028 -> I2C write address: 0x52 - register: 0x40 -  value: 0xA 0x48 0x5 0x60 0xA 0x48 0x1 0x78
15:53:47.028 -> I2C write address: 0x52 - register: 0x12 -  value: 0x0
15:53:47.028 -> 1. Write 0x0 with result 0x0
15:53:47.028 -> I2C write address: 0x52 - register: 0x12 -  value: 0x8
15:53:47.028 -> 2. Write 0x8 with result 0x0
15:53:47.133 -> I2C read address: 0x52 - register: 0x20
15:53:47.133 -> 3. Read DATA_STATUS with 0x41	0x1
15:53:47.133 -> I2C read address: 0x52 - register: 0x4E
15:53:47.133 -> 4. Read GPR_READ_6 with 0x2	0x9
15:53:47.168 -> 12288
15:53:47.168 -> 8
15:53:47.168 -> 1088
15:53:47.168 -> I2C write address: 0x52 - register: 0x40 -  value: 0x20 0x22 0xA 0x43 0x2 0x70 0x0 0xBF
15:53:47.168 -> I2C write address: 0x52 - register: 0x12 -  value: 0x0
15:53:47.168 -> 1. Write 0x0 with result 0x0
15:53:47.168 -> I2C write address: 0x52 - register: 0x12 -  value: 0x8
15:53:47.168 -> 2. Write 0x8 with result 0x0
15:53:47.271 -> I2C read address: 0x52 - register: 0x20
15:53:47.271 -> 3. Read DATA_STATUS with 0x41	0x1
15:53:47.271 -> I2C read address: 0x52 - register: 0x4E
15:53:47.271 -> 4. Read GPR_READ_6 with 0x2	0x9
15:53:47.271 -> 12288
15:53:47.271 -> 8
15:53:47.271 -> 1096
15:53:47.271 -> I2C write address: 0x52 - register: 0x40 -  value: 0x0 0xBF 0x70 0xBD 0x70 0x1 0x0 0x20
15:53:47.306 -> I2C write address: 0x52 - register: 0x12 -  value: 0x0
15:53:47.306 -> 1. Write 0x0 with result 0x0
15:53:47.306 -> I2C write address: 0x52 - register: 0x12 -  value: 0x8
15:53:47.306 -> 2. Write 0x8 with result 0x0
15:53:47.410 -> I2C read address: 0x52 - register: 0x20
15:53:47.410 -> 3. Read DATA_STATUS with 0x41	0x1
15:53:47.410 -> I2C read address: 0x52 - register: 0x4E
15:53:47.410 -> 4. Read GPR_READ_6 with 0x2	0x9
15:53:47.410 -> 12288
15:53:47.410 -> 8
15:53:47.410 -> 1104
15:53:47.410 -> I2C write address: 0x52 - register: 0x40 -  value: 0x8 0x0 0x0 0x40 0xFF 0x3 0x0 0x0
15:53:47.410 -> I2C write address: 0x52 - register: 0x12 -  value: 0x0
15:53:47.410 -> 1. Write 0x0 with result 0x0
15:53:47.445 -> I2C write address: 0x52 - register: 0x12 -  value: 0x8
15:53:47.445 -> 2. Write 0x8 with result 0x0
15:53:47.515 -> I2C read address: 0x52 - register: 0x20
15:53:47.550 -> 3. Read DATA_STATUS with 0x41	0x1
15:53:47.550 -> I2C read address: 0x52 - register: 0x4E
15:53:47.550 -> 4. Read GPR_READ_6 with 0x2	0x9
15:53:47.550 -> 12288
15:53:47.550 -> 8
15:53:47.550 -> 1112
15:53:47.550 -> I2C write address: 0x52 - register: 0x40 -  value: 0xF0 0x1 0x0 0x20 0xFF 0xFF 0x3F 0x0
15:53:47.550 -> I2C write address: 0x52 - register: 0x12 -  value: 0x0
15:53:47.550 -> 1. Write 0x0 with result 0x0
15:53:47.550 -> I2C write address: 0x52 - register: 0x12 -  value: 0x8
15:53:47.550 -> 2. Write 0x8 with result 0x0
15:53:47.654 -> I2C read address: 0x52 - register: 0x20
15:53:47.654 -> 3. Read DATA_STATUS with 0x41	0x1
15:53:47.654 -> I2C read address: 0x52 - register: 0x4E
15:53:47.654 -> 4. Read GPR_READ_6 with 0x2	0x9
15:53:47.689 -> 12288
15:53:47.689 -> 8
15:53:47.689 -> 1120
15:53:47.689 -> I2C write address: 0x52 - register: 0x40 -  value: 0xFF 0x3F 0x0 0x0 0x80 0xE2 0x0 0xE0
15:53:47.689 -> I2C write address: 0x52 - register: 0x12 -  value: 0x0
15:53:47.689 -> 1. Write 0x0 with result 0x0
15:53:47.689 -> I2C write address: 0x52 - register: 0x12 -  value: 0x8
15:53:47.689 -> 2. Write 0x8 with result 0x0
15:53:47.793 -> I2C read address: 0x52 - register: 0x20
15:53:47.793 -> 3. Read DATA_STATUS with 0x41	0x1
15:53:47.793 -> I2C read address: 0x52 - register: 0x4E
15:53:47.793 -> 4. Read GPR_READ_6 with 0x2	0x9
15:53:47.793 -> 12288
15:53:47.793 -> 8
15:53:47.793 -> 1128
15:53:47.793 -> I2C write address: 0x52 - register: 0x40 -  value: 0x0 0xC 0x0 0x40 0x80 0xB5 0x7 0x48
15:53:47.828 -> I2C write address: 0x52 - register: 0x12 -  value: 0x0
15:53:47.828 -> 1. Write 0x0 with result 0x0
15:53:47.828 -> I2C write address: 0x52 - register: 0x12 -  value: 0x8
15:53:47.828 -> 2. Write 0x8 with result 0x0
15:53:47.930 -> I2C read address: 0x52 - register: 0x20
15:53:47.930 -> 3. Read DATA_STATUS with 0x41	0x1
15:53:47.930 -> I2C read address: 0x52 - register: 0x4E
15:53:47.930 -> 4. Read GPR_READ_6 with 0x2	0x9
15:53:47.930 -> 12288
15:53:47.930 -> 8
15:53:47.930 -> 1136
15:53:47.930 -> I2C write address: 0x52 - register: 0x40 -  value: 0x1 0x68 0x49 0x1C 0x1 0x60 0x0 0xF0
15:53:47.930 -> I2C write address: 0x52 - register: 0x12 -  value: 0x0
15:53:47.965 -> 1. Write 0x0 with result 0x0
15:53:47.965 -> I2C write address: 0x52 - register: 0x12 -  value: 0x8
15:53:47.965 -> 2. Write 0x8 with result 0x0
15:53:48.035 -> I2C read address: 0x52 - register: 0x20
15:53:48.070 -> 3. Read DATA_STATUS with 0x41	0x1
15:53:48.070 -> I2C read address: 0x52 - register: 0x4E
15:53:48.070 -> 4. Read GPR_READ_6 with 0x2	0x9
15:53:48.070 -> 12288
15:53:48.070 -> 8
15:53:48.070 -> 1144
15:53:48.070 -> I2C write address: 0x52 - register: 0x40 -  value: 0x4B 0xFD 0x5 0x48 0x2 0x21 0x1 0x60
15:53:48.070 -> I2C write address: 0x52 - register: 0x12 -  value: 0x0
15:53:48.070 -> 1. Write 0x0 with result 0x0
15:53:48.070 -> I2C write address: 0x52 - register: 0x12 -  value: 0x8
15:53:48.070 -> 2. Write 0x8 with result 0x0
15:53:48.175 -> I2C read address: 0x52 - register: 0x20
15:53:48.175 -> 3. Read DATA_STATUS with 0x41	0x1
15:53:48.175 -> I2C read address: 0x52 - register: 0x4E
15:53:48.210 -> 4. Read GPR_READ_6 with 0x2	0x9
15:53:48.210 -> 12288
15:53:48.210 -> 8
15:53:48.210 -> 1152
15:53:48.210 -> I2C write address: 0x52 - register: 0x40 -  value: 0x4 0x48 0x1 0x78 0x40 0x22 0xA 0x43
15:53:48.210 -> I2C write address: 0x52 - register: 0x12 -  value: 0x0
15:53:48.210 -> 1. Write 0x0 with result 0x0
15:53:48.210 -> I2C write address: 0x52 - register: 0x12 -  value: 0x8
15:53:48.210 -> 2. Write 0x8 with result 0x0
15:53:48.314 -> I2C read address: 0x52 - register: 0x20
15:53:48.314 -> 3. Read DATA_STATUS with 0x41	0x1
15:53:48.314 -> I2C read address: 0x52 - register: 0x4E
15:53:48.314 -> 4. Read GPR_READ_6 with 0x2	0x9
15:53:48.314 -> 12288
15:53:48.314 -> 8
15:53:48.314 -> 1160
15:53:48.314 -> I2C write address: 0x52 - register: 0x40 -  value: 0x2 0x70 0x80 0xBD 0x70 0x0 0x0 0x20
15:53:48.349 -> I2C write address: 0x52 - register: 0x12 -  value: 0x0
15:53:48.349 -> 1. Write 0x0 with result 0x0
15:53:48.349 -> I2C write address: 0x52 - register: 0x12 -  value: 0x8
15:53:48.349 -> 2. Write 0x8 with result 0x0
15:53:48.452 -> I2C read address: 0x52 - register: 0x20
15:53:48.452 -> 3. Read DATA_STATUS with 0x41	0x1
15:53:48.452 -> I2C read address: 0x52 - register: 0x4E
15:53:48.452 -> 4. Read GPR_READ_6 with 0x2	0x9
15:53:48.452 -> 12288
15:53:48.452 -> 8
15:53:48.452 -> 1168
15:53:48.452 -> I2C write address: 0x52 - register: 0x40 -  value: 0x80 0xE2 0x0 0xE0 0x0 0xC 0x0 0x40
15:53:48.452 -> I2C write address: 0x52 - register: 0x12 -  value: 0x0
15:53:48.487 -> 1. Write 0x0 with result 0x0
15:53:48.487 -> I2C write address: 0x52 - register: 0x12 -  value: 0x8
15:53:48.487 -> 2. Write 0x8 with result 0x0
15:53:48.592 -> I2C read address: 0x52 - register: 0x20
15:53:48.592 -> 3. Read DATA_STATUS with 0x41	0x1
15:53:48.592 -> I2C read address: 0x52 - register: 0x4E
15:53:48.592 -> 4. Read GPR_READ_6 with 0x2	0x9
15:53:48.592 -> 12288
15:53:48.592 -> 8
15:53:48.592 -> 1176
15:53:48.592 -> I2C write address: 0x52 - register: 0x40 -  value: 0x7 0x48 0x1 0x21 0x81 0x70 0x7 0x48
15:53:48.592 -> I2C write address: 0x52 - register: 0x12 -  value: 0x0
15:53:48.592 -> 1. Write 0x0 with result 0x0
15:53:48.592 -> I2C write address: 0x52 - register: 0x12 -  value: 0x8
15:53:48.627 -> 2. Write 0x8 with result 0x0
15:53:48.696 -> I2C read address: 0x52 - register: 0x20
15:53:48.696 -> 3. Read DATA_STATUS with 0x41	0x1
15:53:48.696 -> I2C read address: 0x52 - register: 0x4E
15:53:48.730 -> 4. Read GPR_READ_6 with 0x2	0x9
15:53:48.730 -> 12288
15:53:48.730 -> 8
15:53:48.730 -> 1184
15:53:48.730 -> I2C write address: 0x52 - register: 0x40 -  value: 0x81 0x68 0x49 0x1C 0x81 0x60 0x6 0x48
15:53:48.730 -> I2C write address: 0x52 - register: 0x12 -  value: 0x0
15:53:48.730 -> 1. Write 0x0 with result 0x0
15:53:48.730 -> I2C write address: 0x52 - register: 0x12 -  value: 0x8
15:53:48.730 -> 2. Write 0x8 with result 0x0
15:53:48.834 -> I2C read address: 0x52 - register: 0x20
15:53:48.834 -> 3. Read DATA_STATUS with 0x41	0x1
15:53:48.834 -> I2C read address: 0x52 - register: 0x4E
15:53:48.834 -> 4. Read GPR_READ_6 with 0x2	0x9
15:53:48.834 -> 12288
15:53:48.834 -> 8
15:53:48.834 -> 1192
15:53:48.834 -> I2C write address: 0x52 - register: 0x40 -  value: 0x4 0x21 0x1 0x60 0x5 0x48 0x1 0x78
15:53:48.869 -> I2C write address: 0x52 - register: 0x12 -  value: 0x0
15:53:48.869 -> 1. Write 0x0 with result 0x0
15:53:48.869 -> I2C write address: 0x52 - register: 0x12 -  value: 0x8
15:53:48.869 -> 2. Write 0x8 with result 0x0
15:53:48.973 -> I2C read address: 0x52 - register: 0x20
15:53:48.973 -> 3. Read DATA_STATUS with 0x41	0x1
15:53:48.973 -> I2C read address: 0x52 - register: 0x4E
15:53:48.973 -> 4. Read GPR_READ_6 with 0x2	0x9
15:53:48.973 -> 12288
15:53:48.973 -> 8
15:53:48.973 -> 1200
15:53:48.973 -> I2C write address: 0x52 - register: 0x40 -  value: 0x80 0x22 0xA 0x43 0x2 0x70 0x70 0x47
15:53:49.008 -> I2C write address: 0x52 - register: 0x12 -  value: 0x0
15:53:49.008 -> 1. Write 0x0 with result 0x0
15:53:49.008 -> I2C write address: 0x52 - register: 0x12 -  value: 0x8
15:53:49.008 -> 2. Write 0x8 with result 0x0
15:53:49.112 -> I2C read address: 0x52 - register: 0x20
15:53:49.112 -> 3. Read DATA_STATUS with 0x41	0x1
15:53:49.112 -> I2C read address: 0x52 - register: 0x4E
15:53:49.112 -> 4. Read GPR_READ_6 with 0x2	0x9
15:53:49.112 -> 12288
15:53:49.112 -> 8
15:53:49.112 -> 1208
15:53:49.112 -> I2C write address: 0x52 - register: 0x40 -  value: 0xF0 0x1 0x0 0x20 0x70 0x1 0x0 0x20
15:53:49.112 -> I2C write address: 0x52 - register: 0x12 -  value: 0x0
15:53:49.112 -> 1. Write 0x0 with result 0x0
15:53:49.112 -> I2C write address: 0x52 - register: 0x12 -  value: 0x8
15:53:49.147 -> 2. Write 0x8 with result 0x0
15:53:49.216 -> I2C read address: 0x52 - register: 0x20
15:53:49.216 -> 3. Read DATA_STATUS with 0x41	0x1
15:53:49.251 -> I2C read address: 0x52 - register: 0x4E
15:53:49.251 -> 4. Read GPR_READ_6 with 0x2	0x9
15:53:49.251 -> 12288
15:53:49.251 -> 8
15:53:49.251 -> 1216
15:53:49.251 -> I2C write address: 0x52 - register: 0x40 -  value: 0x80 0xE2 0x0 0xE0 0x0 0xC 0x0 0x40
15:53:49.251 -> I2C write address: 0x52 - register: 0x12 -  value: 0x0
15:53:49.251 -> 1. Write 0x0 with result 0x0
15:53:49.251 -> I2C write address: 0x52 - register: 0x12 -  value: 0x8
15:53:49.251 -> 2. Write 0x8 with result 0x0
15:53:49.356 -> I2C read address: 0x52 - register: 0x20
15:53:49.356 -> 3. Read DATA_STATUS with 0x41	0x1
15:53:49.356 -> I2C read address: 0x52 - register: 0x4E
15:53:49.356 -> 4. Read GPR_READ_6 with 0x2	0x9
15:53:49.391 -> 12288
15:53:49.391 -> 8
15:53:49.391 -> 1224
15:53:49.391 -> I2C write address: 0x52 - register: 0x40 -  value: 0x10 0xB5 0x9 0x4C 0x20 0x69 0x0 0x28
15:53:49.391 -> I2C write address: 0x52 - register: 0x12 -  value: 0x0
15:53:49.391 -> 1. Write 0x0 with result 0x0
15:53:49.391 -> I2C write address: 0x52 - register: 0x12 -  value: 0x8
15:53:49.391 -> 2. Write 0x8 with result 0x0
15:53:49.494 -> I2C read address: 0x52 - register: 0x20
15:53:49.494 -> 3. Read DATA_STATUS with 0x41	0x1
15:53:49.494 -> I2C read address: 0x52 - register: 0x4E
15:53:49.494 -> 4. Read GPR_READ_6 with 0x2	0x9
15:53:49.494 -> 12288
15:53:49.494 -> 8
15:53:49.494 -> 1232
15:53:49.494 -> I2C write address: 0x52 - register: 0x40 -  value: 0x1 0xD0 0x0 0xF0 0xEF 0xF8 0x7 0x48
15:53:49.528 -> I2C write address: 0x52 - register: 0x12 -  value: 0x0
15:53:49.528 -> 1. Write 0x0 with result 0x0
15:53:49.528 -> I2C write address: 0x52 - register: 0x12 -  value: 0x8
15:53:49.528 -> 2. Write 0x8 with result 0x0
15:53:49.633 -> I2C read address: 0x52 - register: 0x20
15:53:49.633 -> 3. Read DATA_STATUS with 0x41	0x1
15:53:49.633 -> I2C read address: 0x52 - register: 0x4E
15:53:49.633 -> 4. Read GPR_READ_6 with 0x2	0x9
15:53:49.633 -> 12288
15:53:49.633 -> 8
15:53:49.633 -> 1240
15:53:49.633 -> I2C write address: 0x52 - register: 0x40 -  value: 0x8 0x21 0x1 0x60 0x6 0x48 0x1 0x78
15:53:49.633 -> I2C write address: 0x52 - register: 0x12 -  value: 0x0
15:53:49.633 -> 1. Write 0x0 with result 0x0
15:53:49.633 -> I2C write address: 0x52 - register: 0x12 -  value: 0x8
15:53:49.668 -> 2. Write 0x8 with result 0x0
15:53:49.738 -> I2C read address: 0x52 - register: 0x20
15:53:49.773 -> 3. Read DATA_STATUS with 0x41	0x1
15:53:49.773 -> I2C read address: 0x52 - register: 0x4E
15:53:49.773 -> 4. Read GPR_READ_6 with 0x2	0x9
15:53:49.773 -> 12288
15:53:49.773 -> 8
15:53:49.773 -> 1248
15:53:49.773 -> I2C write address: 0x52 - register: 0x40 -  value: 0x1 0x70 0xE0 0x68 0x40 0x1C 0xE0 0x60
15:53:49.773 -> I2C write address: 0x52 - register: 0x12 -  value: 0x0
15:53:49.773 -> 1. Write 0x0 with result 0x0
15:53:49.773 -> I2C write address: 0x52 - register: 0x12 -  value: 0x8
15:53:49.773 -> 2. Write 0x8 with result 0x0
15:53:49.876 -> I2C read address: 0x52 - register: 0x20
15:53:49.876 -> 3. Read DATA_STATUS with 0x41	0x1
15:53:49.876 -> I2C read address: 0x52 - register: 0x4E
